!Keysight Technologies,N5242B,US61255121,A.15.50.07
!Date: Wednesday, October 01, 2025 14:38:47
!Correction: S11(C  2-Port  ) 
!S21(C  2-Port  ) 
!S12(C  2-Port  ) 
!S22(C  2-Port  ) 
!S2P File: Measurements: S11, S21, S12, S22:
# Hz S  dB   R 50
10000000 -54.606102 172.45149 -20.278643 -1.0076556 -20.277637 -0.96973681 -48.498581 -179.77975
11799000 -55.196896 160.14122 -20.285944 -1.2108614 -20.270403 -1.131677 -48.852776 171.11559
13598000 -54.459339 162.65775 -20.279819 -1.3297536 -20.262184 -1.3176579 -48.444649 174.05833
15397000 -54.642578 170.21779 -20.286947 -1.5511961 -20.267601 -1.5455668 -48.501282 171.36757
17196000 -55.069298 154.92966 -20.278292 -1.698429 -20.288029 -1.6909093 -48.678814 171.51389
18995000 -55.255653 157.32283 -20.28474 -1.8182837 -20.279661 -1.8251137 -48.558998 167.92415
20794000 -55.803505 153.23753 -20.282801 -2.0490172 -20.265472 -1.9681425 -48.912346 169.86005
22593000 -56.352589 155.73326 -20.271311 -2.202678 -20.282465 -2.1968217 -48.993755 168.15045
24392000 -55.222591 151.24159 -20.283247 -2.3334136 -20.279549 -2.3110383 -48.523983 166.63838
26191000 -56.05545 157.51627 -20.280069 -2.4996359 -20.280884 -2.5003223 -48.971916 167.87604
27990000 -56.019505 151.75046 -20.279766 -2.6482787 -20.268095 -2.706306 -48.73848 166.88614
29789000 -56.173729 153.52568 -20.274719 -2.9231682 -20.2904 -2.8647804 -49.193146 165.94572
31588000 -56.326576 150.8979 -20.289785 -3.0767689 -20.285551 -3.008785 -49.003586 164.72215
33387000 -55.681866 150.53285 -20.286833 -3.1891797 -20.281229 -3.1989167 -48.943874 163.94434
35186000 -55.786804 148.59982 -20.279551 -3.3722336 -20.27696 -3.3835135 -49.054165 163.52455
36985000 -55.998489 146.15833 -20.281706 -3.5305796 -20.282999 -3.5585551 -49.124462 163.18115
38784000 -55.833397 144.7312 -20.287458 -3.737494 -20.287807 -3.7049778 -49.346859 163.40965
40583000 -55.882133 146.47279 -20.288788 -3.910913 -20.283461 -3.8738644 -49.26469 163.12161
42382000 -55.992031 144.06062 -20.283781 -4.0464129 -20.286396 -4.0631495 -49.335907 161.83653
44181000 -56.298092 144.31619 -20.283585 -4.1950459 -20.282717 -4.1951518 -49.119015 161.36603
45980000 -56.375584 142.45975 -20.288513 -4.3687577 -20.287691 -4.3887191 -49.464104 160.04352
47779000 -56.43372 139.66864 -20.287718 -4.5592852 -20.286108 -4.5463891 -49.329777 159.68971
49578000 -55.872036 139.17139 -20.289164 -4.6935706 -20.288765 -4.7182026 -49.356808 160.14545
51377000 -56.627098 138.78392 -20.288282 -4.8999057 -20.286596 -4.8765211 -49.574326 158.97267
53176000 -56.360451 138.1593 -20.290285 -5.0572181 -20.285744 -5.0274572 -49.445633 159.31972
54975000 -56.254326 135.48141 -20.286787 -5.22789 -20.28727 -5.2312503 -49.38113 157.9062
56774000 -56.086761 134.42352 -20.290346 -5.4237885 -20.290661 -5.4139781 -49.52113 158.15781
58573000 -56.431934 133.16182 -20.289028 -5.5344315 -20.288115 -5.5701065 -49.604366 156.55731
60372000 -55.864265 133.11717 -20.288425 -5.7181115 -20.291641 -5.7512493 -49.65057 156.58301
62171000 -55.660355 131.35342 -20.289837 -5.85988 -20.292616 -5.9059052 -49.650211 155.5672
63970000 -56.019375 132.7058 -20.290201 -6.0619617 -20.289398 -6.0473247 -49.591335 155.64723
65769000 -56.336967 130.28571 -20.291098 -6.2373619 -20.290865 -6.2152724 -49.567268 154.5106
67568000 -56.107521 129.04291 -20.291515 -6.3971195 -20.294392 -6.4222617 -49.58522 155.12514
69367000 -55.863331 126.79665 -20.292515 -6.5958457 -20.288168 -6.551722 -49.763897 153.26591
71166000 -56.016632 126.87543 -20.292398 -6.7477961 -20.291286 -6.7404432 -49.713646 152.29309
72965000 -55.732456 124.84274 -20.291893 -6.9019384 -20.291891 -6.8930769 -49.785915 153.47701
74764000 -55.643688 122.01483 -20.293562 -7.0726309 -20.291779 -7.0641851 -49.796116 153.04358
76563000 -55.674118 122.07052 -20.296251 -7.2466216 -20.295818 -7.2678823 -49.782791 151.44437
78362000 -55.925217 120.28094 -20.294525 -7.4035778 -20.296019 -7.4177442 -49.803165 152.19792
80161000 -55.704784 118.5643 -20.295212 -7.5923238 -20.292164 -7.573709 -49.912056 151.05843
81960000 -55.494465 120.0864 -20.29126 -7.7369986 -20.2953 -7.754086 -49.743546 150.47813
83759000 -55.675045 120.34 -20.293694 -7.9100099 -20.295288 -7.9015985 -49.776047 150.49486
85558000 -55.490593 116.4258 -20.294535 -8.0798016 -20.295515 -8.0679674 -49.816139 149.62363
87357000 -55.336414 117.15287 -20.295477 -8.2546425 -20.294739 -8.2449331 -49.923916 149.53862
89156000 -55.370579 115.45573 -20.296408 -8.4174652 -20.295179 -8.4157677 -49.825584 149.42537
90955000 -55.459671 115.85994 -20.296003 -8.5847797 -20.298187 -8.5946121 -49.877758 148.09288
92754000 -55.382019 114.19519 -20.296663 -8.7458601 -20.295992 -8.7622337 -50.041111 148.15457
94553000 -55.290462 113.86494 -20.295418 -8.9421473 -20.299194 -8.922246 -49.934227 147.77052
96352000 -55.221191 112.86216 -20.296061 -9.0838852 -20.299488 -9.0769949 -49.871811 146.89587
98151000 -54.881069 113.67437 -20.300541 -9.2566252 -20.298241 -9.2603321 -50.028492 146.3797
99950000 -55.051098 110.17905 -20.296999 -9.4423656 -20.295004 -9.4234838 -49.870426 146.12675
101749000 -54.881367 110.9057 -20.299282 -9.6072416 -20.296698 -9.5809622 -49.976818 145.04605
103548000 -54.894531 111.08338 -20.29911 -9.7547398 -20.298023 -9.7556601 -50.073265 145.3356
105347000 -54.637253 108.23779 -20.297266 -9.9335852 -20.300898 -9.911624 -50.035297 145.06058
107146000 -54.749878 110.67162 -20.296722 -10.087818 -20.299089 -10.078263 -50.035294 144.27623
108945000 -54.506218 106.79189 -20.301334 -10.281023 -20.299938 -10.270472 -49.940105 143.25455
110744000 -54.412811 107.26412 -20.299099 -10.447276 -20.299786 -10.401875 -50.132618 142.57523
112543000 -54.507168 106.12405 -20.301893 -10.599446 -20.298086 -10.612682 -49.923618 143.08122
114342000 -54.244034 106.53694 -20.301748 -10.77325 -20.302685 -10.78269 -50.098652 141.48534
116141000 -54.243916 106.10831 -20.298828 -10.944105 -20.299004 -10.959526 -50.09053 142.18207
117940000 -54.169472 105.43235 -20.306229 -11.102662 -20.300636 -11.090877 -50.134315 141.15694
119739000 -54.039837 106.50531 -20.300093 -11.285784 -20.300268 -11.279021 -50.051594 141.73299
121538000 -54.020031 103.35191 -20.302265 -11.437115 -20.299881 -11.421865 -49.998524 140.67807
123337000 -53.988724 105.40497 -20.304005 -11.620125 -20.301172 -11.601833 -50.147907 139.94814
125136000 -54.070896 103.65984 -20.302107 -11.75959 -20.299397 -11.766388 -50.053936 139.58934
126935000 -53.938194 103.39946 -20.301842 -11.931879 -20.303705 -11.948873 -50.042294 139.37111
128734000 -53.480068 101.98973 -20.302559 -12.091744 -20.301079 -12.101335 -50.116745 139.28116
130533000 -53.71019 102.25645 -20.302277 -12.278835 -20.302769 -12.260951 -50.121017 138.48959
132332000 -53.681 101.84937 -20.304554 -12.458858 -20.303671 -12.418281 -50.146 138.13121
134131000 -53.376587 100.88733 -20.305187 -12.612267 -20.302382 -12.601047 -50.091751 137.18237
135930000 -53.47501 101.67618 -20.303984 -12.776037 -20.304796 -12.766975 -50.06501 137.09071
137729000 -53.461658 100.43214 -20.303703 -12.931136 -20.303715 -12.942575 -50.119518 136.30032
139528000 -53.373886 99.853966 -20.306459 -13.099724 -20.30443 -13.115076 -50.046074 136.24954
141327000 -53.244644 100.44529 -20.305513 -13.268345 -20.304245 -13.282941 -50.099346 135.84853
143126000 -53.187901 100.31028 -20.307419 -13.448815 -20.304747 -13.449628 -49.998425 135.8421
144925000 -53.186581 100.18711 -20.307106 -13.618142 -20.306213 -13.600876 -50.065788 135.06371
146724000 -53.101334 99.227524 -20.303362 -13.790165 -20.30261 -13.781683 -49.900715 134.13054
148523000 -53.149849 100.04163 -20.304258 -13.946267 -20.305483 -13.917639 -50.03334 134.79546
150322000 -52.94735 98.698112 -20.304722 -14.097072 -20.303038 -14.130607 -49.967239 135.15057
152121000 -53.115467 98.333946 -20.306856 -14.269145 -20.303743 -14.267052 -50.108067 133.36403
153920000 -52.936909 98.0979 -20.308395 -14.441422 -20.306749 -14.448568 -50.126789 132.71074
155719000 -52.833 97.837631 -20.305962 -14.621504 -20.308548 -14.600901 -50.00848 131.50552
157518000 -52.779613 98.772652 -20.306326 -14.775949 -20.306427 -14.806269 -50.15696 131.28659
159317000 -52.73555 96.248062 -20.304302 -14.955729 -20.307867 -14.944327 -50.076324 130.96794
161116000 -52.700172 97.165833 -20.305534 -15.11429 -20.306482 -15.126245 -50.016472 131.21254
162915000 -52.706676 96.158432 -20.3048 -15.278811 -20.305893 -15.270787 -50.059795 130.59459
164714000 -52.399689 96.409775 -20.306013 -15.459558 -20.310375 -15.437401 -50.164536 131.05722
166513000 -52.368366 95.966881 -20.307148 -15.619617 -20.308535 -15.619041 -50.026073 130.02448
168312000 -52.640793 95.084198 -20.308462 -15.802524 -20.308552 -15.797838 -50.083065 129.58958
170111000 -52.495178 95.482933 -20.310625 -15.938337 -20.30875 -15.927786 -50.023182 128.63763
171910000 -52.423359 95.060944 -20.307043 -16.1276 -20.312325 -16.144056 -50.161068 128.49268
173709000 -52.413155 94.284027 -20.306713 -16.298519 -20.308561 -16.280445 -50.002117 128.4501
175508000 -52.290131 94.665764 -20.310543 -16.440186 -20.311068 -16.445585 -50.146305 128.94968
177307000 -52.178211 93.642082 -20.309835 -16.619766 -20.310198 -16.632952 -50.033386 127.03291
179106000 -52.272404 93.181061 -20.310148 -16.77737 -20.308491 -16.786699 -50.084984 127.84499
180905000 -52.391872 93.687798 -20.312159 -16.956245 -20.30962 -16.96825 -49.958805 126.92669
182704000 -52.273335 92.868759 -20.309975 -17.108116 -20.309547 -17.104046 -50.124229 125.84606
184503000 -52.096607 93.514923 -20.310234 -17.277493 -20.308317 -17.307919 -50.016342 126.19077
186302000 -52.05571 92.900795 -20.312357 -17.44912 -20.311134 -17.456602 -50.027355 125.43868
188101000 -52.126667 92.218773 -20.313581 -17.620758 -20.309433 -17.630836 -50.001701 125.13779
189900000 -52.014576 92.999123 -20.311775 -17.79565 -20.305254 -17.782522 -49.881226 124.96568
191699000 -52.035057 90.740593 -20.311481 -17.971741 -20.310511 -17.950914 -49.984177 123.37173
193498000 -51.996662 92.018715 -20.311398 -18.123716 -20.312399 -18.121265 -49.96899 124.16815
195297000 -51.947544 91.344109 -20.313349 -18.296488 -20.31184 -18.285078 -49.968655 123.6547
197096000 -51.969509 89.858658 -20.313633 -18.441452 -20.313356 -18.453074 -49.949558 123.22906
198895000 -51.917824 90.436554 -20.312923 -18.616983 -20.312899 -18.612692 -50.007565 122.50359
200694000 -51.871605 90.952888 -20.312536 -18.786291 -20.311234 -18.803326 -50.072559 122.60124
202493000 -51.923294 89.759911 -20.314257 -18.964939 -20.311989 -18.950743 -50.00388 122.64371
204292000 -51.770092 88.688889 -20.312954 -19.105839 -20.313778 -19.12985 -49.853935 121.36388
206091000 -51.635914 88.343979 -20.310238 -19.302597 -20.314152 -19.270918 -49.99641 121.96498
207890000 -51.780064 88.650009 -20.311962 -19.458265 -20.310982 -19.450367 -49.872726 120.53428
209689000 -51.747387 88.755775 -20.3137 -19.62262 -20.310858 -19.62385 -49.897766 119.47475
211488000 -51.814358 87.769287 -20.313437 -19.801609 -20.310503 -19.799444 -49.966534 120.70809
213287000 -51.728333 87.170456 -20.311062 -19.962004 -20.316475 -19.94923 -49.912537 120.12064
215086000 -51.747894 86.945488 -20.315218 -20.142538 -20.312313 -20.124264 -50.012703 119.88056
216885000 -51.566292 86.979912 -20.314308 -20.311069 -20.315866 -20.286263 -49.821339 119.47272
218684000 -51.603153 86.315269 -20.319084 -20.457987 -20.31675 -20.47122 -49.941387 118.42902
220483000 -51.400188 85.512245 -20.31056 -20.639694 -20.315065 -20.627594 -49.830715 118.09419
222282000 -51.613438 84.449776 -20.314911 -20.775375 -20.315542 -20.783772 -49.870716 117.73494
224081000 -51.448143 84.427048 -20.314682 -20.976788 -20.315105 -20.975454 -49.733253 117.84053
225880000 -51.481499 83.754456 -20.314806 -21.127237 -20.315218 -21.129997 -49.957184 117.51933
227679000 -51.315784 84.543007 -20.316027 -21.284607 -20.313221 -21.320496 -49.837265 116.51378
229478000 -51.294685 82.836929 -20.318182 -21.471991 -20.314363 -21.437958 -49.842617 116.51877
231277000 -51.41988 83.316162 -20.31484 -21.627045 -20.315884 -21.63073 -49.899147 116.14488
233076000 -51.638065 82.8414 -20.317984 -21.803658 -20.315281 -21.794077 -49.946243 115.39403
234875000 -51.34351 83.212624 -20.317177 -21.945915 -20.317732 -21.95756 -49.691364 115.60269
236674000 -51.126114 81.778793 -20.319305 -22.130819 -20.315517 -22.120497 -49.836559 115.79462
238473000 -51.045696 81.834099 -20.318136 -22.278181 -20.319643 -22.274496 -49.859207 114.85712
240272000 -51.057484 81.185661 -20.31568 -22.470284 -20.315414 -22.466496 -49.795139 113.88988
242071000 -51.123859 79.920425 -20.318338 -22.61627 -20.317177 -22.618006 -49.775936 113.83958
243870000 -51.019913 80.434135 -20.317747 -22.799353 -20.316483 -22.781679 -49.836601 113.62868
245669000 -51.038811 79.543503 -20.321877 -22.957972 -20.318148 -22.975309 -49.669304 113.11226
247468000 -50.896317 79.185707 -20.318653 -23.140951 -20.317368 -23.127848 -49.664955 112.74052
249267000 -50.793789 78.923264 -20.317669 -23.317533 -20.319366 -23.295372 -49.677937 111.69648
251066000 -50.872932 78.282265 -20.315042 -23.452417 -20.318823 -23.46771 -49.665329 111.88153
252865000 -50.773209 78.981651 -20.317354 -23.654396 -20.318453 -23.621969 -49.746323 113.12271
254664000 -50.614967 77.979576 -20.320869 -23.833773 -20.318754 -23.797792 -49.742977 111.52235
256463000 -50.682457 75.152321 -20.319843 -23.96674 -20.318642 -23.954998 -49.641769 111.14822
258262000 -50.505028 76.674431 -20.317755 -24.1182 -20.315256 -24.129002 -49.581753 109.75886
260061000 -50.524124 76.379532 -20.31942 -24.310282 -20.317356 -24.290091 -49.648563 110.5632
261860000 -50.422794 76.775551 -20.316269 -24.451885 -20.318552 -24.465288 -49.457016 110.51656
263659000 -50.256657 75.408852 -20.319336 -24.613329 -20.318926 -24.593262 -49.568279 109.6535
265458000 -50.207638 74.037476 -20.319588 -24.781933 -20.316988 -24.751699 -49.82074 108.75654
267257000 -50.360718 74.393463 -20.317032 -24.950098 -20.32041 -24.954973 -49.469707 109.6364
269056000 -50.028042 74.918289 -20.318945 -25.115967 -20.316776 -25.120327 -49.503418 108.62601
270855000 -50.084637 74.145531 -20.319 -25.295637 -20.323061 -25.292103 -49.618225 108.20023
272654000 -50.030708 73.514793 -20.32163 -25.457262 -20.316034 -25.48568 -49.468731 108.38364
274453000 -49.931656 73.175423 -20.320719 -25.619415 -20.322113 -25.638502 -49.325756 107.50587
276252000 -50.025856 72.845245 -20.322336 -25.788597 -20.319225 -25.798639 -49.358223 107.70554
278051000 -49.948456 73.093796 -20.324299 -25.962025 -20.324928 -25.988785 -49.362625 108.69954
279850000 -49.740906 73.401932 -20.320425 -26.120752 -20.318127 -26.162785 -49.411533 106.25804
281649000 -49.823151 72.098679 -20.316734 -26.317547 -20.313662 -26.276402 -49.322216 106.41528
283448000 -49.551311 72.071762 -20.320066 -26.468231 -20.320385 -26.447319 -49.344082 106.15656
285247000 -49.650829 72.326508 -20.321032 -26.607973 -20.322546 -26.614155 -49.454067 106.18145
287046000 -49.522022 71.863266 -20.321123 -26.757486 -20.323469 -26.790529 -49.545403 106.14256
288845000 -49.578236 71.823685 -20.323538 -26.955933 -20.320019 -26.965851 -49.445496 104.75079
290644000 -49.202591 71.130119 -20.325588 -27.134119 -20.318258 -27.128946 -49.287552 104.29611
292443000 -49.373768 70.74044 -20.320345 -27.305372 -20.324554 -27.288363 -49.393784 104.72543
294242000 -49.218479 70.913765 -20.322084 -27.473431 -20.320112 -27.483673 -49.348164 104.02512
296041000 -49.050751 69.805779 -20.326258 -27.617216 -20.320473 -27.597616 -49.181042 103.35451
297840000 -48.905514 71.239014 -20.319921 -27.777283 -20.324169 -27.774385 -49.277416 104.41269
299639000 -48.925282 70.523109 -20.32196 -27.951698 -20.318266 -27.988834 -49.441101 103.99155
301438000 -48.759079 70.659187 -20.321125 -28.135811 -20.323017 -28.125999 -49.33968 103.70218
303237000 -48.756851 70.319687 -20.321241 -28.303579 -20.323111 -28.289173 -49.249035 103.34844
305036000 -48.612606 70.031158 -20.320976 -28.469536 -20.322849 -28.497377 -49.210384 102.62699
306835000 -48.59219 70.773537 -20.322357 -28.614727 -20.324308 -28.640953 -49.370995 102.33743
308634000 -48.595905 70.279442 -20.323738 -28.790047 -20.323942 -28.775246 -49.074528 101.86602
310433000 -48.448109 70.287514 -20.325869 -28.95365 -20.326197 -28.949411 -49.209576 102.31479
312232000 -48.381744 69.541946 -20.323187 -29.122049 -20.324633 -29.126434 -49.08952 101.52493
314031000 -48.3475 69.510956 -20.323618 -29.299805 -20.324924 -29.289213 -49.203239 100.87234
315830000 -48.225487 69.954964 -20.322592 -29.477686 -20.324715 -29.456377 -48.978252 100.84579
317629000 -48.063419 69.363708 -20.324295 -29.606251 -20.324476 -29.625021 -48.907387 101.60088
319428000 -48.128777 69.396942 -20.324799 -29.803118 -20.327463 -29.791346 -48.9963 99.340706
321227000 -48.141918 69.276115 -20.327209 -29.978241 -20.32547 -29.957811 -49.06226 99.952652
323026000 -48.029102 70.119034 -20.324253 -30.144444 -20.326323 -30.135916 -48.903294 100.25127
324825000 -47.949219 69.182823 -20.327106 -30.296854 -20.326439 -30.306894 -49.091999 99.668282
326624000 -47.864155 69.526428 -20.329006 -30.481318 -20.327461 -30.453375 -48.930187 99.043365
328423000 -47.777611 69.960983 -20.325518 -30.635708 -20.325626 -30.598934 -48.930515 99.361008
330222000 -47.737942 70.298714 -20.326694 -30.81127 -20.323593 -30.80551 -48.838413 99.321854
332021000 -47.805004 69.71862 -20.328012 -30.957256 -20.327215 -30.972927 -48.879993 98.181808
333820000 -47.70274 70.273956 -20.327841 -31.127832 -20.319408 -31.143345 -48.862152 97.742004
335619000 -47.538349 69.384819 -20.330605 -31.308352 -20.326664 -31.29108 -48.751423 98.21463
337418000 -47.510147 70.589989 -20.323412 -31.478922 -20.323853 -31.469055 -48.899029 96.931221
339217000 -47.422211 70.60585 -20.325474 -31.638718 -20.329695 -31.628401 -48.853668 96.661156
341016000 -47.463722 70.283516 -20.327244 -31.790203 -20.331453 -31.781021 -48.754055 97.426842
342815000 -47.268402 70.260445 -20.327858 -31.945059 -20.326956 -31.946346 -48.963894 96.566994
344614000 -47.173901 70.083336 -20.32637 -32.150517 -20.329487 -32.168026 -48.76329 96.616859
346413000 -47.29739 70.094673 -20.331669 -32.296288 -20.324812 -32.288666 -48.746349 96.750061
348212000 -47.24279 70.705231 -20.329731 -32.457119 -20.329638 -32.474087 -48.859085 95.999283
350011000 -47.21582 70.412857 -20.329765 -32.643726 -20.327398 -32.611408 -48.754829 94.94194
351810000 -47.116741 70.53891 -20.325294 -32.769642 -20.330242 -32.791092 -48.648685 96.248932
353609000 -47.083858 70.513687 -20.32749 -32.961006 -20.324165 -32.971161 -48.729095 94.330421
355408000 -47.076317 71.580544 -20.331104 -33.121323 -20.330626 -33.119926 -48.84679 95.186714
357207000 -47.066067 71.049652 -20.330215 -33.312073 -20.33161 -33.27599 -48.661968 95.748695
359006000 -46.938053 71.32563 -20.330755 -33.461338 -20.329416 -33.446838 -48.833549 95.265793
360805000 -47.023628 71.494331 -20.32757 -33.628811 -20.325108 -33.617901 -48.720787 94.148575
362604000 -46.906582 71.968346 -20.331652 -33.785549 -20.331511 -33.778385 -48.833767 95.280663
364403000 -46.946064 71.762871 -20.333397 -33.949745 -20.329264 -33.962898 -48.59906 93.920334
366202000 -46.844669 71.338799 -20.330442 -34.108547 -20.327843 -34.1348 -48.667034 92.978874
368001000 -46.733162 72.283783 -20.329926 -34.296535 -20.328213 -34.287544 -48.660603 92.731895
369800000 -46.762821 72.171967 -20.330404 -34.469391 -20.330008 -34.439816 -48.625175 93.280968
371599000 -46.735664 72.249153 -20.331345 -34.647945 -20.330173 -34.645458 -48.640743 93.649117
373398000 -46.694523 71.01432 -20.334045 -34.803532 -20.332397 -34.788094 -48.567619 93.270493
375197000 -46.772648 72.074654 -20.331438 -34.960411 -20.329462 -34.964073 -48.627972 93.674019
376996000 -46.654217 71.324341 -20.330132 -35.118134 -20.333557 -35.130547 -48.611736 92.534279
378795000 -46.690884 71.847031 -20.332954 -35.294949 -20.331711 -35.291241 -48.644203 92.043213
380594000 -46.626751 72.733963 -20.333321 -35.475346 -20.333069 -35.46674 -48.709934 91.700409
