!Keysight Technologies,N5242B,US61255121,A.15.50.07
!Date: Friday, October 24, 2025 17:39:20
!Correction: S11(Off) 
!S21(Off) 
!S12(Off) 
!S22(Off) 
!S2P File: Measurements: S11, S21, S12, S22:
# Hz S  dB   R 50
10000000 -24.583263 -139.09564 -30.092831 67.618469 -30.275892 65.561905 -24.633368 -135.362
11000000 -25.002653 -144.0481 -30.173414 60.647717 -30.061733 58.760876 -24.96904 -140.71103
12000000 -25.38636 -148.5372 -30.160772 53.974644 -30.040304 53.932358 -25.358877 -145.01953
13000000 -25.72039 -152.62053 -30.157036 47.792286 -30.112776 47.318001 -25.686724 -148.95642
14000000 -26.043234 -156.49605 -30.159632 41.799679 -30.154043 42.355484 -26.121971 -152.9263
15000000 -26.364483 -160.04669 -30.141117 36.299862 -30.203487 37.418324 -26.363901 -156.03836
16000000 -26.626802 -163.5966 -30.157303 30.896624 -30.115061 32.394711 -26.690973 -159.42299
17000000 -26.906984 -166.91338 -30.172874 25.447018 -29.957045 27.719112 -27.015924 -162.19183
18000000 -27.161226 -170.05426 -30.15633 20.4389 -30.022587 24.065254 -27.303284 -165.42982
19000000 -27.420082 -173.29218 -30.153 15.38232 -30.216459 18.697227 -27.592211 -168.19336
20000000 -27.61133 -176.37938 -30.1555 10.217202 -30.210011 13.728884 -27.83209 -170.71877
21000000 -27.873661 -179.42818 -30.172949 5.3026876 -30.030937 9.4754734 -28.107489 -173.75737
22000000 -28.070593 177.63042 -30.172134 0.43518394 -30.154989 5.4114881 -28.31036 -175.99294
23000000 -28.310722 174.73969 -30.173944 -4.398644 -30.043516 0.81532973 -28.582541 -179.01607
24000000 -28.497665 171.88106 -30.166044 -9.1743908 -30.032684 -3.2737632 -28.823606 178.30522
25000000 -28.72357 169.14935 -30.175535 -13.972255 -30.123676 -7.2154837 -29.026459 175.57909
26000000 -28.880388 166.35298 -30.159309 -18.679369 -30.077715 -12.267173 -29.34716 173.32365
27000000 -29.085955 163.53123 -30.169161 -23.431311 -30.183521 -17.378687 -29.625252 171.13727
28000000 -29.265099 160.86551 -30.17647 -28.042835 -30.213486 -20.710924 -29.705528 169.00211
29000000 -29.434425 158.09938 -30.17091 -32.597816 -30.201174 -25.279991 -29.998291 166.56984
30000000 -29.621719 155.40814 -30.186924 -37.315369 -30.160734 -29.508938 -30.173534 164.02029
31000000 -29.775913 152.70416 -30.164997 -41.864906 -30.100742 -34.019146 -30.33058 161.99632
32000000 -29.957592 150.11424 -30.177427 -46.436489 -30.172297 -38.175049 -30.631559 159.39313
33000000 -30.123583 147.39024 -30.194536 -50.98307 -30.167929 -42.609634 -30.834908 157.35205
34000000 -30.278271 144.81277 -30.181705 -55.545223 -30.194263 -46.580029 -31.004965 155.08926
35000000 -30.454977 142.25473 -30.182467 -60.035576 -30.109394 -50.67691 -31.231806 153.27979
36000000 -30.591356 139.5966 -30.184893 -64.555679 -30.210545 -54.888062 -31.394213 151.2612
37000000 -30.755791 137.11383 -30.191076 -69.054184 -30.123672 -59.282082 -31.614771 148.78664
38000000 -30.922218 134.61383 -30.208469 -73.612938 -30.173178 -63.184776 -31.793736 147.41614
39000000 -31.064497 132.04837 -30.194206 -78.139313 -30.179096 -67.493851 -31.976864 144.79979
40000000 -31.213614 129.53209 -30.185549 -82.552528 -30.156067 -71.696701 -32.109116 143.08272
41000000 -31.362974 127.01514 -30.20138 -87.012062 -30.177647 -75.503365 -32.384617 141.1734
42000000 -31.525333 124.51395 -30.206757 -91.420364 -30.172602 -80.183769 -32.55241 139.50085
43000000 -31.659708 121.98972 -30.200138 -95.90287 -30.181423 -84.314651 -32.696945 137.39044
44000000 -31.802147 119.53156 -30.198582 -100.35702 -30.149601 -88.348839 -32.878727 135.5506
45000000 -31.973463 117.14936 -30.21179 -104.82621 -30.173031 -92.776283 -33.078785 134.07639
46000000 -32.11087 114.66381 -30.214094 -109.26467 -30.166914 -96.885338 -33.267017 131.97629
47000000 -32.250149 112.25606 -30.21232 -113.75471 -30.195637 -101.05898 -33.419773 130.54109
48000000 -32.388783 109.87363 -30.210011 -118.20002 -30.188976 -105.25092 -33.627266 128.84459
49000000 -32.559235 107.44978 -30.222757 -122.55778 -30.207731 -109.3344 -33.805569 127.24189
50000000 -32.694397 105.11028 -30.22493 -126.97699 -30.173149 -113.38117 -34.017605 125.33792
51000000 -32.826042 102.71669 -30.219545 -131.37959 -30.223269 -117.90627 -34.100124 124.28044
52000000 -32.98177 100.38577 -30.230352 -135.81345 -30.174034 -121.77024 -34.249863 122.73946
53000000 -33.128471 97.999886 -30.243858 -140.19891 -30.211994 -125.83297 -34.450424 121.04851
54000000 -33.261864 95.81855 -30.229816 -144.68181 -30.15963 -129.77228 -34.623581 119.35816
55000000 -33.389431 93.509735 -30.216318 -149.08217 -30.17395 -134.58861 -34.710728 118.59724
56000000 -33.537689 91.14711 -30.229038 -153.46695 -30.207954 -138.53876 -34.948997 116.73392
57000000 -33.660252 88.92514 -30.224638 -157.87982 -30.141939 -142.08209 -34.977657 115.13207
58000000 -33.81839 86.724152 -30.24227 -162.30487 -30.210226 -146.70795 -35.136917 114.19223
59000000 -33.963524 84.427155 -30.235846 -166.65373 -30.176485 -150.61038 -35.191391 112.81993
60000000 -34.096996 82.256485 -30.240057 -171.03281 -30.174526 -154.64444 -35.423435 111.86116
61000000 -34.240337 80.1231 -30.243492 -175.45909 -30.192039 -158.93042 -35.406929 109.99287
62000000 -34.36665 77.943031 -30.247427 -179.83479 -30.20285 -162.94066 -35.502693 109.41551
63000000 -34.519897 75.838516 -30.254953 175.71902 -30.21965 -167.08981 -35.674034 108.14554
64000000 -34.659225 73.658867 -30.265726 171.36475 -30.199223 -171.60136 -35.689949 107.02531
65000000 -34.814327 71.565254 -30.254934 166.98169 -30.169558 -175.48984 -35.84219 105.44515
66000000 -34.938576 69.511505 -30.253099 162.61679 -30.18878 -179.37032 -35.891945 104.49603
67000000 -35.055134 67.449928 -30.254421 158.25246 -30.178997 176.34975 -35.867748 103.03379
68000000 -35.197971 65.439018 -30.253746 153.84111 -30.207354 172.32285 -35.978237 102.37365
69000000 -35.350895 63.431545 -30.269081 149.45607 -30.189945 167.97658 -36.031784 100.87414
70000000 -35.487865 61.393314 -30.274229 145.07245 -30.215141 163.97571 -36.152454 99.687119
71000000 -35.609142 59.490578 -30.266222 140.71521 -30.198446 159.77344 -36.052132 98.570793
72000000 -35.73933 57.557678 -30.26111 136.31369 -30.191463 156.02077 -36.099617 97.324585
73000000 -35.869762 55.542782 -30.26326 131.94165 -30.207069 151.66277 -36.114765 95.982857
74000000 -36.009296 53.64756 -30.274845 127.59546 -30.2439 147.75801 -36.10508 94.921967
75000000 -36.127949 51.834198 -30.277069 123.19061 -30.229635 143.27322 -36.11095 93.686325
76000000 -36.268562 49.911797 -30.277081 118.86893 -30.243282 139.62456 -36.149723 92.148827
77000000 -36.383205 48.166565 -30.272625 114.5099 -30.263052 135.43236 -36.096092 91.015808
78000000 -36.502277 46.360184 -30.266348 110.16528 -30.243557 131.41176 -36.136272 89.535988
79000000 -36.612885 44.555473 -30.270662 105.74041 -30.207605 127.17893 -36.057606 88.203743
80000000 -36.733128 42.781425 -30.271378 101.38715 -30.225233 122.99817 -36.061821 86.998184
81000000 -36.858086 41.026218 -30.277035 97.0868 -30.228344 118.65983 -36.00309 85.256332
82000000 -36.962677 39.326599 -30.283476 92.677704 -30.229269 115.03805 -36.030506 83.743629
83000000 -37.092682 37.771027 -30.288342 88.286293 -30.206903 110.97604 -36.014729 82.391884
84000000 -37.177017 36.054146 -30.285194 83.98185 -30.229013 106.80442 -35.985203 80.434273
85000000 -37.284298 34.501213 -30.278965 79.574829 -30.233854 102.74343 -35.993496 79.069641
86000000 -37.387878 32.742336 -30.279551 75.218445 -30.245195 98.481941 -35.965321 77.671967
87000000 -37.473328 31.193197 -30.289566 70.888123 -30.254181 94.58857 -35.876289 75.85704
88000000 -37.584862 29.586096 -30.287701 66.565308 -30.257597 90.332672 -35.821739 74.305954
89000000 -37.682243 28.111816 -30.298553 62.181026 -30.247066 86.341263 -35.843708 72.983734
90000000 -37.776215 26.526152 -30.306147 57.843132 -30.251886 82.362724 -35.820465 71.261101
91000000 -37.852783 25.128071 -30.296391 53.443447 -30.245415 78.211998 -35.784618 69.384377
92000000 -37.921486 23.596985 -30.299065 49.110062 -30.26214 74.019524 -35.767372 67.518974
93000000 -37.993664 22.117474 -30.298428 44.753582 -30.238373 70.184593 -35.674561 66.146515
94000000 -38.073448 20.711304 -30.295439 40.391529 -30.226171 65.821854 -35.613129 63.797928
95000000 -38.142399 19.370955 -30.30088 36.060654 -30.246729 61.89777 -35.587135 62.373344
96000000 -38.198547 17.801853 -30.302874 31.682348 -30.243502 57.797977 -35.646915 60.667728
97000000 -38.267826 16.542099 -30.312769 27.296442 -30.270729 53.866192 -35.575962 58.20673
98000000 -38.298256 15.140931 -30.307093 23.03083 -30.248524 49.767403 -35.539963 56.676067
99000000 -38.333878 13.671291 -30.307104 18.661823 -30.260033 45.646576 -35.512321 54.678368
100000000 -38.394409 12.286689 -30.304106 14.319268 -30.275558 41.563488 -35.469994 52.771698
101000000 -38.409256 10.980995 -30.308052 9.9697371 -30.226604 37.467636 -35.434608 50.702438
102000000 -38.428219 9.6448593 -30.303837 5.6188617 -30.247084 33.382053 -35.396717 48.696037
103000000 -38.462776 8.2436829 -30.310965 1.2109916 -30.268866 29.315725 -35.370003 46.850372
104000000 -38.471287 6.828361 -30.314936 -3.1067021 -30.269728 25.247065 -35.413124 44.707973
105000000 -38.486744 5.5333748 -30.318161 -7.4472551 -30.261761 21.284321 -35.383148 42.451202
106000000 -38.49712 4.0771666 -30.317766 -11.784635 -30.270918 17.001112 -35.352608 40.485592
107000000 -38.512562 2.8154905 -30.313694 -16.118065 -30.296059 13.173944 -35.296867 38.5686
108000000 -38.46067 1.3939456 -30.310711 -20.471327 -30.262478 9.1379375 -35.282341 36.601223
109000000 -38.471889 -0.0045837932 -30.318583 -24.830992 -30.264343 4.8373399 -35.295662 34.265671
110000000 -38.438358 -1.4975549 -30.304605 -29.19087 -30.276331 0.81000865 -35.326908 32.371902
111000000 -38.413708 -2.8806448 -30.310577 -33.520607 -30.257717 -3.1670933 -35.289272 29.930088
112000000 -38.39407 -4.3406382 -30.318773 -37.867134 -30.269478 -7.3201599 -35.35759 27.987001
113000000 -38.381191 -5.749578 -30.321398 -42.197128 -30.243914 -11.183388 -35.315025 25.928379
114000000 -38.355213 -7.1909838 -30.33094 -46.531139 -30.241463 -15.301147 -35.303886 23.490774
115000000 -38.325039 -8.7514477 -30.332666 -50.880898 -30.268791 -19.514084 -35.308746 21.828104
116000000 -38.271278 -10.175916 -30.334896 -55.235477 -30.293625 -23.2777 -35.294445 19.827118
117000000 -38.208828 -11.81 -30.327497 -59.536903 -30.275557 -27.596657 -35.351048 17.558865
118000000 -38.173237 -13.432436 -30.328419 -63.906017 -30.271688 -31.702436 -35.412807 15.512983
119000000 -38.120625 -14.898195 -30.323612 -68.229362 -30.286745 -35.933002 -35.387264 13.26757
120000000 -38.075172 -16.494694 -30.33008 -72.611908 -30.274342 -39.738907 -35.358818 11.250889
121000000 -37.996696 -18.143208 -30.332767 -76.930557 -30.251059 -43.813061 -35.409782 9.0225105
122000000 -37.943249 -19.774744 -30.335583 -81.265564 -30.278013 -47.820107 -35.456985 6.9048071
123000000 -37.896378 -21.419151 -30.336439 -85.614319 -30.284752 -52.012978 -35.527649 4.5301805
124000000 -37.827827 -23.131788 -30.342394 -89.957436 -30.28035 -56.029606 -35.537121 2.4968309
125000000 -37.765312 -24.884537 -30.346828 -94.289993 -30.281576 -60.064697 -35.570793 0.22901446
126000000 -37.696758 -26.618261 -30.347723 -98.626427 -30.28359 -64.189949 -35.615189 -1.7756962
127000000 -37.629665 -28.393866 -30.350451 -102.9882 -30.282375 -68.172302 -35.641953 -3.8722022
128000000 -37.545143 -30.210474 -30.343479 -107.29195 -30.29604 -72.199165 -35.714622 -5.94139
129000000 -37.484756 -31.977825 -30.342409 -111.63834 -30.284601 -76.473366 -35.74654 -8.1353798
130000000 -37.400578 -33.864189 -30.338739 -115.99071 -30.291101 -80.367821 -35.788616 -10.077973
131000000 -37.338558 -35.737507 -30.348604 -120.32492 -30.25466 -84.505608 -35.88076 -12.125493
132000000 -37.267483 -37.570076 -30.346951 -124.6691 -30.302166 -88.75489 -35.952576 -13.89249
133000000 -37.200882 -39.488865 -30.350098 -128.99146 -30.274599 -92.491341 -35.934895 -16.12471
134000000 -37.12492 -41.448502 -30.353758 -133.35843 -30.301249 -96.749634 -36.057999 -17.978937
135000000 -37.053661 -43.415062 -30.358606 -137.65714 -30.274885 -100.86285 -36.101254 -20.065371
136000000 -36.978535 -45.343391 -30.366043 -142.03806 -30.29925 -104.84727 -36.19059 -22.411663
137000000 -36.902489 -47.340782 -30.362062 -146.36807 -30.30311 -108.95137 -36.220242 -24.407913
138000000 -36.83717 -49.360909 -30.353968 -150.71367 -30.292889 -112.94208 -36.250717 -26.093529
139000000 -36.755676 -51.428982 -30.356998 -155.03574 -30.302643 -117.09763 -36.387749 -27.938343
140000000 -36.673637 -53.412594 -30.358711 -159.38844 -30.292473 -121.21634 -36.513821 -30.390739
141000000 -36.609436 -55.404781 -30.360636 -163.69937 -30.310583 -124.98158 -36.539631 -31.590919
142000000 -36.542007 -57.546768 -30.361805 -168.06168 -30.285923 -129.15118 -36.616276 -33.608864
143000000 -36.477192 -59.652229 -30.363335 -172.40541 -30.284256 -133.20131 -36.716808 -35.390511
144000000 -36.401295 -61.796234 -30.368185 -176.72 -30.299978 -137.28592 -36.769291 -37.396233
145000000 -36.328876 -63.878124 -30.369907 178.93292 -30.291388 -141.5499 -36.833057 -39.241032
146000000 -36.265923 -66.084465 -30.37686 174.60722 -30.328569 -145.35355 -36.92683 -41.065044
147000000 -36.211056 -68.248085 -30.376331 170.26616 -30.305954 -149.29721 -37.062366 -42.369015
148000000 -36.114792 -70.373238 -30.373373 165.94943 -30.307278 -153.73094 -37.047821 -44.568832
149000000 -36.070011 -72.554298 -30.378571 161.65027 -30.31284 -157.62843 -37.204311 -45.979652
150000000 -36.00914 -74.74884 -30.382326 157.30757 -30.299587 -161.74036 -37.267506 -47.771935
151000000 -35.940338 -76.980705 -30.379326 152.95543 -30.292521 -165.73508 -37.330051 -48.948223
152000000 -35.879448 -79.157021 -30.380331 148.59474 -30.324057 -169.65076 -37.498238 -50.402332
153000000 -35.812424 -81.483444 -30.382675 144.27672 -30.332266 -173.73642 -37.576317 -52.040733
154000000 -35.763954 -83.678345 -30.382509 139.90926 -30.306484 -177.91585 -37.584377 -53.758049
155000000 -35.70071 -85.967812 -30.38176 135.60468 -30.328215 178.17204 -37.762592 -55.28265
156000000 -35.646938 -88.219704 -30.382116 131.24911 -30.299372 173.84183 -37.699547 -56.689754
157000000 -35.582161 -90.463966 -30.385782 126.90529 -30.310305 170.02675 -37.881401 -57.684986
158000000 -35.527069 -92.835503 -30.387136 122.56037 -30.295446 165.77086 -37.900833 -59.085331
159000000 -35.471931 -95.217468 -30.392849 118.21369 -30.329731 161.72049 -38.026482 -60.602882
160000000 -35.433575 -97.401077 -30.386135 113.85029 -30.343822 157.90247 -38.219559 -61.877724
161000000 -35.374199 -99.794228 -30.397512 109.53703 -30.327923 153.79776 -38.129826 -62.976974
162000000 -35.328773 -102.03822 -30.388224 105.21899 -30.327524 149.66237 -38.226353 -64.566055
163000000 -35.277294 -104.42238 -30.393417 100.87886 -30.317509 145.60426 -38.22884 -65.846931
164000000 -35.220818 -106.80116 -30.391157 96.573242 -30.335604 141.51309 -38.297398 -66.693405
165000000 -35.172379 -109.19179 -30.396303 92.196678 -30.329687 137.43707 -38.372272 -67.62236
166000000 -35.140781 -111.48908 -30.397287 87.85939 -30.3622 133.34554 -38.426373 -69.121994
167000000 -35.082355 -113.82948 -30.400135 83.510849 -30.338514 129.51703 -38.449848 -69.61055
168000000 -35.051514 -116.23112 -30.396811 79.195335 -30.36644 125.08127 -38.474457 -70.819786
169000000 -35.011353 -118.69223 -30.398212 74.850006 -30.311802 121.09099 -38.503876 -72.306129
170000000 -34.978733 -121.02112 -30.407745 70.498558 -30.337952 116.96437 -38.539764 -72.924927
171000000 -34.929993 -123.43437 -30.407183 66.171471 -30.324385 112.98265 -38.54562 -74.290398
172000000 -34.890446 -125.84669 -30.405964 61.84837 -30.323914 109.00275 -38.591187 -75.125137
173000000 -34.858929 -128.30417 -30.404224 57.50729 -30.36356 105.03368 -38.554981 -76.186661
174000000 -34.824333 -130.71426 -30.402025 53.132866 -30.37163 100.80108 -38.534512 -77.264252
175000000 -34.799988 -133.11617 -30.404312 48.814056 -30.341587 96.680794 -38.497658 -78.003387
176000000 -34.765392 -135.60608 -30.410568 44.461613 -30.333143 92.594826 -38.442253 -78.830742
177000000 -34.732822 -137.9474 -30.412024 40.136433 -30.334152 88.644051 -38.47039 -80.743591
178000000 -34.711727 -140.38918 -30.408772 35.828026 -30.355791 84.880508 -38.327148 -81.259247
179000000 -34.683357 -142.86432 -30.413931 31.45195 -30.32192 80.575378 -38.33548 -82.321129
180000000 -34.665279 -145.34166 -30.411224 27.102161 -30.343578 76.585236 -38.2089 -82.998207
181000000 -34.639759 -147.78578 -30.414917 22.820856 -30.364992 72.51403 -38.202557 -84.588547
182000000 -34.618053 -150.26782 -30.413572 18.460045 -30.328598 68.546043 -38.032413 -85.752449
183000000 -34.602589 -152.72812 -30.41527 14.10726 -30.361273 64.441254 -38.007046 -86.715469
184000000 -34.584148 -155.11728 -30.421419 9.7979794 -30.320711 60.413857 -37.913242 -88.406776
185000000 -34.563828 -157.61075 -30.419981 5.449863 -30.33873 56.209557 -37.861126 -89.483475
186000000 -34.552868 -160.05774 -30.419952 1.1112407 -30.355167 51.969891 -37.716099 -90.664116
187000000 -34.539059 -162.59831 -30.419769 -3.253751 -30.347042 48.029243 -37.695656 -92.353127
188000000 -34.530022 -165.02107 -30.416931 -7.5788608 -30.355032 43.907917 -37.501476 -93.871277
189000000 -34.527401 -167.52216 -30.42277 -11.887762 -30.354435 39.907585 -37.4296 -94.762512
190000000 -34.516151 -170.01073 -30.426929 -16.261339 -30.324627 36.015213 -37.355442 -96.36087
191000000 -34.501926 -172.46036 -30.425957 -20.583206 -30.348707 31.929653 -37.254574 -98.595718
192000000 -34.501038 -174.96089 -30.426147 -24.889288 -30.365622 27.798912 -37.122658 -99.607529
193000000 -34.491989 -177.45485 -30.426418 -29.259399 -30.334238 23.702362 -36.997253 -101.15342
194000000 -34.50491 -179.89215 -30.425867 -33.593567 -30.37421 19.746616 -36.873665 -102.61252
195000000 -34.500919 177.60945 -30.429869 -37.897881 -30.373732 15.832587 -36.739285 -104.58768
196000000 -34.50708 175.11813 -30.431046 -42.27293 -30.339632 11.607702 -36.665989 -106.78683
197000000 -34.50808 172.63208 -30.431644 -46.608482 -30.347534 7.4474874 -36.570183 -107.86841
198000000 -34.512955 170.17934 -30.43862 -50.94931 -30.364389 3.6567168 -36.485966 -109.71638
199000000 -34.52301 167.69868 -30.435999 -55.259033 -30.340677 -0.57158101 -36.39069 -111.37567
200000000 -34.52998 165.1851 -30.434248 -59.602432 -30.365995 -4.7655354 -36.244587 -113.58659
201000000 -34.549385 162.7135 -30.436003 -63.920319 -30.347902 -8.7171593 -36.19289 -115.63029
202000000 -34.553764 160.21848 -30.439598 -68.260422 -30.356157 -12.852736 -36.074352 -117.46638
203000000 -34.564728 157.726 -30.439455 -72.647911 -30.349506 -17.092388 -35.967487 -119.38939
204000000 -34.585308 155.24931 -30.437616 -76.967514 -30.33695 -20.709265 -35.825275 -120.95332
205000000 -34.600811 152.72418 -30.438402 -81.312675 -30.352411 -25.005491 -35.79076 -123.6519
206000000 -34.627121 150.31718 -30.441511 -85.610161 -30.382195 -28.856829 -35.678169 -125.44351
207000000 -34.637558 147.77542 -30.444319 -90.007408 -30.33474 -33.16066 -35.525734 -127.45869
208000000 -34.67049 145.26828 -30.441839 -94.286453 -30.39143 -36.920502 -35.470451 -129.98778
209000000 -34.694778 142.86348 -30.442795 -98.663971 -30.369249 -41.276409 -35.361477 -131.6458
210000000 -34.716679 140.33318 -30.443165 -102.96996 -30.343386 -45.447128 -35.350254 -134.08189
211000000 -34.741203 137.93211 -30.444912 -107.29191 -30.362255 -49.266514 -35.190243 -136.0546
212000000 -34.782948 135.41304 -30.448248 -111.65343 -30.381512 -53.428741 -35.161224 -138.27905
213000000 -34.809544 132.9426 -30.444393 -116.02625 -30.378027 -57.509628 -35.036087 -140.90349
214000000 -34.841053 130.49925 -30.445387 -120.31329 -30.375364 -61.485317 -34.996353 -142.86984
215000000 -34.879688 128.03575 -30.451056 -124.65591 -30.389402 -65.410156 -34.907543 -145.06422
216000000 -34.905102 125.62617 -30.449118 -129.03365 -30.361895 -69.426262 -34.904541 -147.29755
217000000 -34.945019 123.12344 -30.451668 -133.31706 -30.360844 -73.532486 -34.826725 -149.67603
