!Keysight Technologies,N5242B,US61255121,A.15.50.07
!Date: Wednesday, October 01, 2025 15:40:57
!Correction: S11(C  2-Port  ) 
!S21(C  2-Port  ) 
!S12(C  2-Port  ) 
!S22(C  2-Port  ) 
!S2P File: Measurements: S11, S21, S12, S22:
# Hz S  dB   R 50
10000000 -50.610863 172.31471 -30.082615 -1.3449391 -30.078173 -1.3939614 -48.784222 177.48297
11799000 -51.810902 165.99315 -30.045425 -1.3034811 -30.045057 -1.3583872 -48.588825 169.52542
13598000 -52.434551 167.61731 -30.113972 -1.8639328 -30.108135 -2.0084565 -48.844532 173.79585
15397000 -52.03154 170.95528 -30.078583 -2.010421 -30.085274 -2.2333238 -48.405708 170.18175
17196000 -51.76923 164.78043 -30.098673 -2.3210034 -30.085869 -1.9001132 -48.472427 172.59213
18995000 -52.086479 166.08789 -30.11017 -2.5481455 -30.083483 -2.4408631 -48.52887 167.54085
20794000 -52.276306 165.4122 -30.092928 -2.7809401 -30.048704 -2.5247266 -48.799633 170.94865
22593000 -52.597389 164.63606 -30.080273 -2.8623619 -30.048414 -2.9432404 -48.790146 166.72784
24392000 -52.094318 163.59465 -30.079849 -3.1284096 -30.073053 -3.1255176 -48.554092 168.71181
26191000 -52.802834 166.14467 -30.080225 -3.3079278 -30.080805 -3.4905174 -48.749767 169.73213
27990000 -52.692871 162.40871 -30.083708 -3.3454487 -30.049818 -3.618962 -48.610592 166.90446
29789000 -52.673618 165.61044 -30.073696 -3.855696 -30.093647 -3.7013218 -48.840218 167.02817
31588000 -52.76582 160.24634 -30.085649 -4.070787 -30.097965 -3.993233 -49.069412 165.42842
33387000 -52.762241 160.26265 -30.086842 -4.3839478 -30.08786 -4.1844664 -48.778332 165.06993
35186000 -52.758598 159.11841 -30.098343 -4.3797221 -30.080271 -4.5406728 -48.942638 165.42578
36985000 -52.848598 159.16327 -30.096174 -4.7507472 -30.100222 -4.6596665 -48.959377 162.99234
38784000 -52.889984 159.27362 -30.089247 -4.8879633 -30.083101 -4.8767371 -49.214386 164.13206
40583000 -52.820904 158.57625 -30.071796 -5.2063222 -30.089891 -5.1389141 -49.027065 162.17337
42382000 -52.914547 156.9678 -30.083534 -5.2251267 -30.095358 -5.3152137 -49.371407 162.42857
44181000 -53.039993 158.2946 -30.086548 -5.6237879 -30.087471 -5.5596366 -49.218925 162.41028
45980000 -52.954422 158.33998 -30.099854 -5.8101554 -30.106188 -5.7991943 -49.457054 160.48293
47779000 -53.077663 154.87805 -30.085537 -6.056808 -30.097988 -6.1100507 -49.267269 160.49924
49578000 -52.696747 154.56459 -30.08868 -6.2526374 -30.092262 -6.2199211 -49.285606 160.73161
51377000 -53.409302 153.79193 -30.097431 -6.3952827 -30.103827 -6.5577207 -49.29179 159.57671
53176000 -53.137569 153.06328 -30.082685 -6.7090983 -30.097319 -6.6624966 -49.284306 158.75594
54975000 -53.212463 153.00642 -30.096613 -6.9044247 -30.088995 -7.0226974 -49.385963 158.10023
56774000 -53.016834 151.99605 -30.100719 -7.097775 -30.080324 -7.1948862 -49.233604 158.63196
58573000 -53.292381 150.55157 -30.098665 -7.3336468 -30.098974 -7.3622789 -49.425068 157.54665
60372000 -52.957016 150.57671 -30.095139 -7.6141958 -30.08979 -7.5698833 -49.471035 157.34685
62171000 -53.296497 149.50934 -30.096035 -7.8294091 -30.10191 -7.7000461 -49.467258 156.66249
63970000 -53.163208 148.29825 -30.095095 -8.0849895 -30.091623 -7.933557 -49.65202 155.91368
65769000 -53.636868 148.54028 -30.106831 -8.2456312 -30.105236 -8.2084961 -49.479778 155.74332
67568000 -53.363953 148.01498 -30.110317 -8.4521542 -30.095894 -8.4271069 -49.412079 154.42451
69367000 -53.361042 147.02834 -30.104027 -8.6833057 -30.101576 -8.6687489 -49.652931 154.86227
71166000 -53.165913 146.02394 -30.105272 -8.9683809 -30.102718 -8.870409 -49.6082 153.55081
72965000 -53.259956 145.05359 -30.085577 -9.1296883 -30.093126 -9.1496201 -49.677811 154.18683
74764000 -53.136883 144.57278 -30.093718 -9.317421 -30.095747 -9.2911205 -49.751534 154.18842
76563000 -53.332912 144.0554 -30.103622 -9.6202736 -30.100655 -9.5851488 -49.605709 152.27446
78362000 -53.292709 141.75604 -30.122702 -9.7791166 -30.09866 -9.7473717 -49.851498 152.34805
80161000 -53.398407 143.09396 -30.099619 -10.003717 -30.097765 -9.9429665 -49.80616 151.4933
81960000 -53.267635 142.25948 -30.093048 -10.231685 -30.09643 -10.1686 -49.761559 151.94501
83759000 -53.401466 141.67094 -30.109812 -10.482544 -30.104002 -10.496023 -49.803108 151.15352
85558000 -53.313099 139.4949 -30.111855 -10.736315 -30.091545 -10.651047 -49.844799 150.87984
87357000 -53.333607 140.37512 -30.099133 -10.955932 -30.103802 -10.900795 -49.883408 149.74239
89156000 -53.244064 138.88837 -30.106016 -11.149879 -30.106216 -11.194259 -49.720955 149.72685
90955000 -53.240479 138.57318 -30.097757 -11.356122 -30.110266 -11.376244 -49.848427 149.38045
92754000 -53.290939 137.99205 -30.112427 -11.574571 -30.108013 -11.561674 -49.94286 149.27031
94553000 -53.381165 136.95567 -30.106817 -11.80921 -30.107716 -11.78474 -49.893093 148.29269
96352000 -53.253502 137.25232 -30.101837 -12.035039 -30.107143 -12.007502 -49.746189 147.08371
98151000 -53.32444 135.72899 -30.108648 -12.250793 -30.112135 -12.288416 -50.081234 148.23195
99950000 -53.219704 135.1364 -30.105776 -12.505734 -30.099497 -12.444885 -49.912392 147.33043
101749000 -53.138332 134.34019 -30.108236 -12.659781 -30.105803 -12.67542 -49.993587 146.38268
103548000 -53.098278 134.43889 -30.107298 -12.94699 -30.106453 -12.91734 -49.966713 146.78108
105347000 -53.041611 133.24477 -30.110197 -13.136986 -30.108524 -13.105269 -50.039227 145.90051
107146000 -53.067066 133.56578 -30.104338 -13.31002 -30.102182 -13.403941 -50.049915 144.60162
108945000 -53.144413 131.59129 -30.104198 -13.599404 -30.109898 -13.58345 -50.068203 143.53291
110744000 -53.093143 130.7657 -30.107513 -13.775398 -30.114305 -13.758393 -50.063618 143.24695
112543000 -52.973118 130.66104 -30.102947 -14.011494 -30.10273 -13.985279 -49.978905 144.58675
114342000 -52.959339 130.91867 -30.103304 -14.228101 -30.110762 -14.220627 -50.047661 142.49864
116141000 -52.958015 130.98921 -30.106712 -14.453229 -30.103012 -14.423509 -50.040646 143.16193
117940000 -53.045376 129.06839 -30.110764 -14.66207 -30.109945 -14.604232 -50.116505 142.39485
119739000 -52.834637 129.09077 -30.106304 -14.889905 -30.107653 -14.918948 -50.128479 142.44876
121538000 -52.959034 127.54795 -30.102854 -15.153347 -30.104259 -15.100512 -50.008717 141.9599
123337000 -52.875072 128.34378 -30.109455 -15.378543 -30.121756 -15.350804 -50.153992 141.26172
125136000 -52.996529 127.84618 -30.109577 -15.569343 -30.110844 -15.498622 -49.998951 140.37764
126935000 -52.826046 126.0319 -30.114134 -15.797207 -30.111645 -15.747963 -50.10416 139.5489
128734000 -52.755081 125.13358 -30.116262 -16.049522 -30.107895 -16.011766 -50.113937 139.84991
130533000 -52.897137 125.52563 -30.112059 -16.194948 -30.117109 -16.182014 -50.033379 139.37802
132332000 -52.892311 125.73473 -30.115685 -16.466303 -30.11591 -16.437613 -50.182461 139.21767
134131000 -52.64735 124.44647 -30.113394 -16.694302 -30.115715 -16.632469 -50.074677 137.87019
135930000 -52.626949 125.01261 -30.111969 -16.874395 -30.106255 -16.871769 -50.080582 137.68542
137729000 -52.809402 123.88277 -30.109209 -17.072855 -30.116491 -17.095301 -50.174862 137.26601
139528000 -52.715523 123.2056 -30.109398 -17.300819 -30.113939 -17.360817 -50.022854 137.18893
141327000 -52.489777 123.82512 -30.115438 -17.523455 -30.118435 -17.605543 -50.090366 137.08846
143126000 -52.593628 123.23305 -30.116684 -17.770748 -30.117226 -17.790663 -50.21172 136.17168
144925000 -52.625416 122.4648 -30.108412 -17.965702 -30.11174 -17.980061 -50.173908 135.92413
146724000 -52.672848 122.58858 -30.126558 -18.153852 -30.119268 -18.271732 -49.977802 135.8197
148523000 -52.539215 121.94448 -30.122421 -18.454599 -30.109665 -18.432392 -50.183506 135.026
150322000 -52.410912 121.1916 -30.116371 -18.61087 -30.116417 -18.705446 -50.064148 135.97179
152121000 -52.639259 121.25574 -30.112768 -18.927135 -30.113153 -18.845465 -50.115284 133.98892
153920000 -52.485401 120.03836 -30.12525 -19.099396 -30.107256 -19.127987 -50.191372 132.57663
155719000 -52.481148 120.23361 -30.121269 -19.343355 -30.124094 -19.335737 -50.190678 132.49176
157518000 -52.189537 120.67856 -30.105444 -19.559076 -30.112795 -19.542009 -50.081078 131.99185
159317000 -52.255241 119.01982 -30.116457 -19.802509 -30.11837 -19.810814 -50.237083 131.68205
161116000 -52.216702 118.96909 -30.129398 -19.951122 -30.109663 -19.957008 -50.058922 131.34901
162915000 -52.441334 118.27918 -30.115788 -20.232821 -30.120634 -20.215069 -50.225704 131.17909
164714000 -52.206173 118.24706 -30.104099 -20.454884 -30.115196 -20.490078 -50.294571 131.08028
166513000 -52.19865 116.76456 -30.123819 -20.624971 -30.119228 -20.597525 -50.105961 130.01117
168312000 -52.248779 118.24535 -30.117413 -20.825077 -30.129686 -20.874147 -50.185352 130.29103
170111000 -52.185177 117.13091 -30.116909 -21.076506 -30.120909 -21.090042 -50.169514 128.85727
171910000 -52.253681 115.92104 -30.110468 -21.272234 -30.124943 -21.305588 -50.199677 129.11357
173709000 -52.108807 116.07626 -30.120008 -21.529274 -30.118649 -21.573809 -50.080509 129.22981
175508000 -52.152077 115.60925 -30.122166 -21.73172 -30.105728 -21.705795 -50.144035 128.70644
177307000 -52.2024 115.76688 -30.118803 -21.9471 -30.116508 -21.972281 -50.036705 127.54794
179106000 -52.174744 116.23429 -30.119747 -22.14983 -30.121777 -22.170778 -50.132023 127.8532
180905000 -52.055279 114.67862 -30.119715 -22.42654 -30.124857 -22.433262 -50.100193 127.3469
182704000 -52.116367 114.66108 -30.115719 -22.6388 -30.127934 -22.636461 -50.106007 125.51882
184503000 -52.037361 114.72468 -30.126736 -22.763781 -30.125763 -22.834322 -50.036057 126.73608
186302000 -51.892075 115.13605 -30.116381 -23.068142 -30.123447 -23.090963 -50.060883 125.5239
188101000 -52.011547 113.46215 -30.119942 -23.265482 -30.117884 -23.289892 -50.039867 125.37157
189900000 -51.812061 114.12934 -30.121853 -23.539854 -30.130732 -23.604916 -49.961605 124.37809
191699000 -52.073757 111.99509 -30.121401 -23.676086 -30.132561 -23.697151 -50.051327 124.46011
193498000 -52.035358 112.8247 -30.126942 -23.918177 -30.121136 -23.974731 -50.010815 125.05709
195297000 -51.988701 112.73326 -30.128359 -24.172676 -30.120594 -24.18413 -50.075832 123.52056
197096000 -51.966103 111.76372 -30.131468 -24.402662 -30.127834 -24.391087 -49.980503 123.61651
198895000 -51.766953 111.56662 -30.129414 -24.622992 -30.123634 -24.587795 -50.097923 122.16411
200694000 -51.875526 112.03985 -30.122316 -24.816778 -30.121756 -24.832853 -50.032837 122.48373
202493000 -51.962288 110.23748 -30.130768 -25.066626 -30.130175 -25.104401 -50.083393 122.39894
204292000 -51.823479 109.37875 -30.127829 -25.303743 -30.125132 -25.287884 -50.013439 121.70635
206091000 -51.843407 109.71761 -30.114569 -25.45701 -30.127935 -25.557478 -50.048763 121.96087
207890000 -52.034748 109.30254 -30.125042 -25.713778 -30.12941 -25.589968 -49.918842 120.42391
209689000 -51.951019 109.88303 -30.118092 -25.952421 -30.122213 -25.918211 -50.011391 119.91518
211488000 -51.994629 107.84569 -30.122225 -26.111063 -30.117754 -26.190933 -49.999844 120.28297
213287000 -52.029057 108.77801 -30.131285 -26.419075 -30.121809 -26.363983 -49.943104 119.51955
215086000 -51.965706 107.27739 -30.132811 -26.582914 -30.127966 -26.577066 -50.070393 119.81705
216885000 -51.790028 107.34434 -30.126034 -26.873026 -30.124228 -26.837305 -49.811832 118.60838
218684000 -51.822758 107.1397 -30.128752 -27.00964 -30.128839 -27.041149 -49.969345 118.01593
220483000 -51.742054 105.82143 -30.129942 -27.278156 -30.112164 -27.240158 -50.075409 118.63876
222282000 -52.053894 106.28368 -30.131868 -27.536467 -30.120508 -27.495615 -49.989262 117.30219
224081000 -51.75993 104.48962 -30.133755 -27.73591 -30.131916 -27.760525 -49.846085 118.22499
225880000 -52.011566 104.09914 -30.12575 -27.980742 -30.127777 -27.905157 -49.874023 117.24626
227679000 -51.728638 105.60954 -30.121824 -28.063532 -30.124197 -28.152735 -49.844448 116.29191
229478000 -51.684353 103.70648 -30.12377 -28.360188 -30.120564 -28.371017 -49.776272 115.64729
231277000 -51.855675 104.29618 -30.128899 -28.592188 -30.117241 -28.590038 -49.851624 116.17635
233076000 -51.922226 103.08928 -30.127953 -28.823822 -30.127764 -28.833511 -49.817966 114.98209
234875000 -51.750031 103.27639 -30.125914 -29.12993 -30.123104 -29.01074 -49.703129 115.39616
236674000 -51.636147 101.53664 -30.130869 -29.255993 -30.130915 -29.275011 -49.78138 115.19941
238473000 -51.695148 102.02694 -30.13155 -29.512623 -30.122534 -29.502541 -49.795723 114.56295
240272000 -51.534206 101.6367 -30.128094 -29.64628 -30.137674 -29.726606 -49.78133 113.57591
242071000 -51.668297 100.74442 -30.131826 -29.954628 -30.13826 -29.896477 -49.764061 112.76569
243870000 -51.649872 99.614998 -30.130768 -30.139601 -30.134607 -30.136189 -49.693985 113.47875
245669000 -51.756855 99.703491 -30.123081 -30.375874 -30.130287 -30.371428 -49.63628 113.0276
247468000 -51.557182 99.21347 -30.135023 -30.554583 -30.137327 -30.585957 -49.654453 112.2626
249267000 -51.54187 98.927277 -30.128111 -30.83732 -30.122227 -30.808023 -49.666111 110.74408
251066000 -51.637066 99.087418 -30.138271 -30.981274 -30.138065 -30.976206 -49.638966 111.854
252865000 -51.462921 98.069115 -30.1245 -31.177519 -30.123096 -31.245203 -49.541157 112.02579
254664000 -51.569492 96.404144 -30.12426 -31.449688 -30.127287 -31.405893 -49.781658 110.50505
256463000 -51.346134 96.255554 -30.124928 -31.734039 -30.134754 -31.685928 -49.678925 111.80304
258262000 -51.262402 96.910225 -30.128967 -31.900682 -30.124046 -31.812405 -49.463467 110.31843
260061000 -51.306595 95.691307 -30.131393 -32.139263 -30.127905 -32.105736 -49.636509 111.60727
261860000 -51.31168 96.518822 -30.135244 -32.343456 -30.142418 -32.376015 -49.615761 110.06628
263659000 -51.189281 94.86351 -30.129921 -32.575855 -30.131021 -32.591469 -49.587376 109.0846
265458000 -51.292568 92.87059 -30.124624 -32.892998 -30.136534 -32.802986 -49.686813 107.91783
267257000 -51.167679 93.483673 -30.130003 -33.050522 -30.143806 -33.061573 -49.3997 110.6073
269056000 -50.923592 93.853783 -30.141258 -33.188183 -30.143999 -33.270596 -49.484375 108.84158
270855000 -50.904091 92.706665 -30.124489 -33.487934 -30.135757 -33.425327 -49.342594 108.27674
272654000 -50.943226 92.090782 -30.135447 -33.583046 -30.117661 -33.634449 -49.389961 108.14079
274453000 -50.917446 91.230202 -30.147291 -33.853298 -30.133095 -33.86116 -49.435795 107.32465
276252000 -50.862076 92.172104 -30.132313 -34.193344 -30.138159 -34.091213 -49.596283 107.28394
278051000 -50.834061 90.861862 -30.137028 -34.339352 -30.143295 -34.242096 -49.369499 108.82829
279850000 -50.703079 90.812218 -30.123224 -34.54747 -30.135851 -34.506603 -49.302917 106.35264
281649000 -50.722107 89.089249 -30.131853 -34.849751 -30.128441 -34.782211 -49.305996 106.92005
283448000 -50.644432 89.749168 -30.138432 -35.073364 -30.143013 -35.082703 -49.18655 106.85667
285247000 -50.473125 89.662384 -30.139317 -35.206944 -30.131592 -35.227673 -49.329269 106.52104
287046000 -50.697159 88.762024 -30.125551 -35.331448 -30.1378 -35.371941 -49.548023 104.81874
288845000 -50.539799 88.425583 -30.133799 -35.707821 -30.146589 -35.647797 -49.347878 105.83868
290644000 -50.358562 87.351418 -30.142532 -35.91745 -30.137409 -35.825386 -49.234985 104.26781
292443000 -50.415279 87.202744 -30.131327 -36.077057 -30.126524 -36.12072 -49.308773 104.48132
294242000 -50.320332 87.504547 -30.146494 -36.228466 -30.139593 -36.229698 -49.248142 103.90143
296041000 -50.230915 86.76107 -30.12896 -36.543125 -30.144157 -36.489964 -49.142384 102.96561
297840000 -50.064449 87.372688 -30.135511 -36.611511 -30.139029 -36.72879 -49.268166 104.46947
299639000 -50.062172 86.685562 -30.139067 -36.895882 -30.135044 -36.957493 -49.312107 103.37891
301438000 -49.832611 86.657021 -30.136866 -37.195122 -30.132483 -37.209858 -49.205101 102.88522
303237000 -49.81543 85.046448 -30.131388 -37.373482 -30.13718 -37.42115 -49.073902 101.94075
305036000 -49.816811 86.090439 -30.145393 -37.601627 -30.140078 -37.672256 -49.04377 102.05025
306835000 -49.836872 85.047935 -30.140221 -37.859707 -30.161192 -37.834133 -49.169704 102.31385
308634000 -49.621346 85.75251 -30.145555 -38.069557 -30.129578 -38.146351 -49.133667 101.83073
310433000 -49.628639 85.618706 -30.136908 -38.273636 -30.130789 -38.337475 -49.149323 101.25904
312232000 -49.638466 85.321808 -30.134428 -38.457443 -30.148491 -38.564869 -49.103363 100.74088
314031000 -49.498081 84.620468 -30.154295 -38.644825 -30.141766 -38.753101 -48.898499 100.86843
315830000 -49.59964 84.3489 -30.146559 -38.973721 -30.137156 -38.987087 -48.880493 101.12162
317629000 -49.191059 84.197968 -30.150274 -39.254635 -30.129911 -39.191631 -48.941898 101.16123
319428000 -49.214943 84.148849 -30.137623 -39.420944 -30.131271 -39.403896 -48.801926 99.174446
321227000 -49.166832 83.310089 -30.139795 -39.527573 -30.135624 -39.642311 -48.97369 99.885696
323026000 -49.096439 84.792137 -30.140244 -39.744297 -30.135502 -39.862656 -48.913376 99.962318
324825000 -49.13385 83.526108 -30.143179 -40.070286 -30.151899 -40.106041 -48.870842 99.35598
326624000 -49.099033 83.294868 -30.153015 -40.203407 -30.145962 -40.247009 -48.759754 99.020508
328423000 -48.79063 83.64035 -30.13493 -40.542885 -30.139885 -40.525276 -48.872486 98.810913
330222000 -48.797268 83.856468 -30.145363 -40.705437 -30.149405 -40.783947 -48.79734 98.773193
332021000 -48.9394 83.802658 -30.12928 -40.977043 -30.153028 -40.993908 -48.751808 98.179405
333820000 -48.749321 84.362564 -30.146269 -41.18998 -30.147587 -41.10342 -48.92654 97.511368
335619000 -48.754753 83.120178 -30.137747 -41.374538 -30.136118 -41.361675 -48.630421 98.458351
337418000 -48.693356 83.245865 -30.143009 -41.627548 -30.145935 -41.589802 -48.716419 97.989456
339217000 -48.39698 83.103539 -30.133707 -41.792274 -30.149548 -41.854183 -48.698006 96.87748
341016000 -48.624218 82.763618 -30.143116 -41.987549 -30.131363 -42.063435 -48.711399 97.333725
342815000 -48.380955 83.103401 -30.136667 -42.287315 -30.145857 -42.398678 -48.859692 96.737808
344614000 -48.405708 83.330666 -30.139473 -42.509426 -30.138197 -42.419361 -48.66291 95.968315
346413000 -48.376621 82.92984 -30.161316 -42.757393 -30.133926 -42.707298 -48.614223 97.086868
348212000 -48.347389 83.522957 -30.140892 -42.865368 -30.147976 -42.893242 -48.821148 96.98542
350011000 -48.264744 82.865486 -30.142088 -43.109344 -30.143633 -43.093994 -48.700703 95.701157
351810000 -48.138283 82.28035 -30.156347 -43.346287 -30.140762 -43.392048 -48.60339 96.419518
353609000 -48.07156 83.012573 -30.139055 -43.6227 -30.147717 -43.578388 -48.581364 95.117035
355408000 -48.114716 83.166115 -30.136988 -43.768307 -30.150919 -43.742584 -48.521904 95.422386
357207000 -48.068371 82.938858 -30.144348 -44.026237 -30.14542 -44.143677 -48.554192 95.580925
359006000 -47.964886 82.915077 -30.140678 -44.267391 -30.143795 -44.352592 -48.665897 95.241043
360805000 -48.028847 83.44445 -30.145998 -44.408237 -30.153547 -44.483139 -48.476608 94.990944
362604000 -47.867313 83.742752 -30.148668 -44.684586 -30.143654 -44.701656 -48.558796 95.491524
364403000 -47.929764 83.410439 -30.151091 -44.84671 -30.14023 -44.938229 -48.556137 94.940483
366202000 -47.823513 82.747238 -30.152843 -45.064903 -30.14683 -45.131298 -48.418224 93.327263
368001000 -47.764473 83.906219 -30.147051 -45.352375 -30.146217 -45.315228 -48.47448 92.900848
369800000 -47.669098 82.501785 -30.140518 -45.532181 -30.151638 -45.550163 -48.420658 93.488251
371599000 -47.741272 83.655487 -30.146986 -45.870201 -30.143187 -45.851345 -48.405884 93.97847
373398000 -47.687492 82.959793 -30.137892 -46.00745 -30.145824 -46.045132 -48.444019 94.537727
375197000 -47.656933 83.543274 -30.152103 -46.216774 -30.151518 -46.216751 -48.431049 94.081223
376996000 -47.651245 83.382004 -30.140043 -46.343002 -30.156721 -46.426273 -48.510265 93.205765
378795000 -47.681416 83.591019 -30.135225 -46.694874 -30.150127 -46.699703 -48.405235 92.513687
380594000 -47.540348 84.332794 -30.150455 -46.89798 -30.142155 -46.837578 -48.534901 92.247391
