!Keysight Technologies,N5242B,US61255121,A.15.50.07
!Date: Wednesday, October 01, 2025 14:34:56
!Correction: S11(C  2-Port  ) 
!S21(C  2-Port  ) 
!S12(C  2-Port  ) 
!S22(C  2-Port  ) 
!S2P File: Measurements: S11, S21, S12, S22:
# Hz S  dB   R 50
10000000 -69.639435 -101.75915 -0.0081900135 -0.54350507 -0.0024041776 -0.50239831 -64.45256 15.199502
11799000 -77.785934 42.183403 -0.0037219257 -0.63675195 -0.0026688867 -0.60841131 -71.182648 22.515877
13598000 -71.112572 96.667351 -0.0049550701 -0.70784318 -0.0028758475 -0.7133528 -69.585846 55.328735
15397000 -67.820084 90.616089 -0.0062627052 -0.81007242 -0.0021353406 -0.79685301 -63.426876 70.058609
17196000 -59.119442 71.349045 -0.0061507178 -0.90504831 -0.0033592267 -0.89342207 -69.192062 96.61805
18995000 -59.511967 64.047096 -0.0054801502 -0.98175049 -0.0034921265 -0.98044431 -61.222355 85.120605
20794000 -57.996853 70.940971 -0.0055993777 -1.0779696 -0.0040279119 -1.073151 -63.630474 70.440521
22593000 -59.703476 68.958595 -0.0060008876 -1.1740941 -0.004871882 -1.1606244 -59.040974 76.13475
24392000 -57.09161 67.768974 -0.0067656469 -1.2622947 -0.0046210322 -1.2581483 -59.15657 62.651993
26191000 -56.293205 54.853512 -0.0061172778 -1.3501464 -0.0056141517 -1.3483845 -59.220356 67.979118
27990000 -56.213604 51.338646 -0.0066321283 -1.439212 -0.0050574378 -1.4384401 -57.549187 66.111626
29789000 -56.088108 52.745113 -0.0065030209 -1.5303777 -0.0050522545 -1.5310332 -57.259651 51.730209
31588000 -55.097244 49.431103 -0.0069556907 -1.6235825 -0.0059630419 -1.6215252 -58.051472 61.886875
33387000 -55.418285 44.151306 -0.0068385 -1.7071488 -0.0052025705 -1.7069092 -57.070171 53.416409
35186000 -55.085564 45.833118 -0.0074247438 -1.8033674 -0.0064205811 -1.8007072 -57.388432 52.361889
36985000 -55.599865 44.33786 -0.0076389331 -1.8916943 -0.0067651281 -1.8913484 -56.344116 53.00045
38784000 -53.812824 44.751019 -0.0072660535 -1.9838141 -0.0076506021 -1.9792738 -56.132099 48.28561
40583000 -54.914108 37.572136 -0.0084615592 -2.0783358 -0.0072862785 -2.0686009 -56.092312 45.026642
42382000 -54.9114 38.482033 -0.0082818232 -2.1676261 -0.0077727418 -2.1567736 -56.673668 45.759754
44181000 -55.065319 34.264103 -0.0085608969 -2.2545569 -0.0072784997 -2.2523973 -55.877518 46.836246
45980000 -55.429016 35.427059 -0.0091676069 -2.3439066 -0.0076373774 -2.3425751 -55.928242 46.383503
47779000 -55.731964 31.985094 -0.0091162445 -2.4353244 -0.0079597179 -2.4324956 -56.593708 46.551876
49578000 -55.332584 39.229229 -0.0099069793 -2.5272708 -0.0075546564 -2.5215039 -56.104294 44.684929
51377000 -55.135262 36.42717 -0.0087344199 -2.6148086 -0.0078178644 -2.614279 -56.240894 49.490856
53176000 -55.499039 38.798191 -0.0093860328 -2.7032187 -0.0094994009 -2.7055576 -55.982807 48.949104
54975000 -55.363651 39.624317 -0.0095289759 -2.7964094 -0.008840248 -2.789645 -55.815086 50.523132
56774000 -54.603256 44.839943 -0.0094864294 -2.8871574 -0.0093608694 -2.8852551 -56.173801 50.397076
58573000 -54.840595 43.875278 -0.010249468 -2.977387 -0.0095160045 -2.9790921 -55.541676 53.220032
60372000 -54.951389 46.798508 -0.0091535989 -3.0681367 -0.0090213045 -3.0672615 -54.971512 47.00275
62171000 -54.644409 45.68034 -0.0098901149 -3.1532023 -0.0095769698 -3.156913 -55.099594 51.421707
63970000 -54.583164 46.489708 -0.010129334 -3.2491024 -0.0094597088 -3.2478859 -54.547699 53.624802
65769000 -54.167194 43.564564 -0.010501941 -3.3374517 -0.010141788 -3.3330934 -54.368099 52.411995
67568000 -53.941887 46.096397 -0.010457309 -3.4274635 -0.010695782 -3.4241991 -54.401779 52.907764
69367000 -53.607555 47.634167 -0.010201466 -3.5199237 -0.010435512 -3.515101 -53.920185 50.326691
71166000 -53.595905 46.836514 -0.011129684 -3.6108589 -0.010984093 -3.6062486 -53.664745 51.269791
72965000 -53.148788 48.433765 -0.011606975 -3.693001 -0.011249066 -3.7016544 -53.73513 50.838158
74764000 -52.85564 48.97377 -0.011261264 -3.7904403 -0.010326532 -3.7858582 -53.698917 47.956013
76563000 -53.053707 46.572437 -0.011807094 -3.8788824 -0.011017311 -3.8790288 -53.185638 49.745319
78362000 -52.667919 46.653339 -0.011816957 -3.9653761 -0.0108847 -3.9696863 -53.722622 49.868183
80161000 -52.580719 44.34272 -0.011876139 -4.059741 -0.011071032 -4.054481 -53.133728 50.42625
81960000 -52.355591 47.380192 -0.012632587 -4.1472311 -0.011384803 -4.1526599 -53.241379 47.807266
83759000 -52.443985 45.071564 -0.0120825 -4.2409234 -0.010956844 -4.2423272 -52.774796 49.189819
85558000 -51.781807 44.114323 -0.01287715 -4.3280048 -0.011194305 -4.3284407 -53.02784 49.853035
87357000 -51.886147 45.339836 -0.013035267 -4.4152422 -0.011306164 -4.4180217 -52.80608 48.12072
89156000 -52.15485 44.732807 -0.012734097 -4.5101438 -0.01236727 -4.5084944 -52.790878 50.903652
90955000 -51.899395 43.874519 -0.013042277 -4.5965333 -0.011993205 -4.598022 -52.764 48.689884
92754000 -52.021763 45.617466 -0.013391504 -4.6885967 -0.012030845 -4.6886568 -52.612148 50.046383
94553000 -51.887379 43.646969 -0.013633254 -4.7788424 -0.01286287 -4.7766433 -52.746502 49.747822
96352000 -51.943634 43.510109 -0.012861053 -4.8693218 -0.01207679 -4.8679748 -52.338875 50.331585
98151000 -51.789917 47.52747 -0.014235479 -4.9595757 -0.012230983 -4.9611702 -52.309799 48.578617
99950000 -51.745373 45.815292 -0.013891636 -5.0466323 -0.01312614 -5.0495157 -52.446903 49.933262
101749000 -51.708996 45.834736 -0.0135338 -5.1391616 -0.012763954 -5.1395121 -52.317879 48.026276
103548000 -51.607464 44.703693 -0.014222234 -5.2302608 -0.012617789 -5.2310729 -52.085251 50.903534
105347000 -51.483727 45.68504 -0.014530259 -5.3200021 -0.013487579 -5.318922 -51.916428 49.29855
107146000 -51.530312 47.227547 -0.014201197 -5.4121318 -0.013561065 -5.4110656 -51.890739 49.791164
108945000 -51.262768 45.256207 -0.014304302 -5.5026054 -0.013469663 -5.4989977 -51.79763 50.713806
110744000 -51.170341 47.289085 -0.015445374 -5.5895224 -0.013944094 -5.588408 -51.759876 50.327923
112543000 -51.23772 46.265839 -0.015614755 -5.6782484 -0.013765949 -5.6790695 -51.685539 50.937885
114342000 -51.119705 50.30191 -0.015503306 -5.7699275 -0.014562205 -5.7687864 -51.214779 49.699734
116141000 -50.876778 48.959042 -0.014915711 -5.8568072 -0.014010316 -5.858768 -51.420319 48.739826
117940000 -50.70129 48.183128 -0.015743874 -5.9482102 -0.014294433 -5.9488926 -51.059799 49.049644
119739000 -50.230625 47.753403 -0.015429787 -6.0350771 -0.014599606 -6.0373755 -51.167858 48.045204
121538000 -50.208931 46.929756 -0.015513957 -6.126565 -0.014659865 -6.1314707 -51.13472 49.152603
123337000 -50.174797 46.540756 -0.016091499 -6.2171001 -0.014675449 -6.2205243 -50.559589 49.370525
125136000 -50.043705 47.233513 -0.015865462 -6.310513 -0.015495772 -6.3099895 -50.721428 49.052448
126935000 -50.124355 46.5411 -0.015890144 -6.3968911 -0.015265869 -6.3974113 -50.338142 48.359619
128734000 -49.698242 47.055557 -0.016678214 -6.4897981 -0.015737379 -6.4905353 -50.853542 47.960804
130533000 -49.769691 45.883373 -0.016394202 -6.5791578 -0.015476808 -6.5757236 -50.303951 47.395966
132332000 -49.672722 45.771461 -0.016636638 -6.6703086 -0.015650867 -6.6665907 -50.497665 46.903881
134131000 -49.646641 46.109417 -0.01731075 -6.7539659 -0.015902095 -6.7596025 -50.397278 48.433018
135930000 -49.707493 45.184128 -0.016548289 -6.8456697 -0.016056424 -6.8477921 -50.366158 48.468693
137729000 -49.582115 44.329189 -0.017565973 -6.9382162 -0.016017972 -6.9384074 -50.043995 48.069111
139528000 -49.439209 44.916084 -0.016831271 -7.0259061 -0.015917944 -7.0272431 -50.006783 47.757057
141327000 -49.507011 44.969326 -0.01766214 -7.117095 -0.016080327 -7.1142755 -49.971737 46.84705
143126000 -49.525963 45.002052 -0.017785082 -7.2045288 -0.016390564 -7.2085876 -50.093884 47.055748
144925000 -49.603767 44.486691 -0.018089721 -7.2970753 -0.016425382 -7.296979 -49.885296 46.732166
146724000 -49.562126 44.222267 -0.018296378 -7.3884959 -0.016655607 -7.3856316 -49.759483 49.741039
148523000 -49.591503 43.762119 -0.018559458 -7.4745374 -0.01760314 -7.4740872 -49.821335 47.146038
150322000 -49.249889 44.133068 -0.0180094 -7.565115 -0.017836027 -7.5655007 -49.797218 46.209427
152121000 -49.537457 44.528816 -0.018458851 -7.6568165 -0.01862419 -7.6607976 -49.552341 46.761417
153920000 -49.470486 45.23069 -0.018588575 -7.7408676 -0.016728887 -7.7494493 -49.37624 45.951923
155719000 -49.628338 44.262146 -0.018476788 -7.8341784 -0.017363248 -7.8356204 -49.37653 46.637203
157518000 -49.782822 45.787594 -0.019309271 -7.9261146 -0.017914005 -7.9240508 -49.353703 44.46537
159317000 -49.381809 45.555874 -0.018419337 -8.0157986 -0.018948127 -8.0110598 -49.376926 46.323563
161116000 -49.340302 45.257614 -0.018706862 -8.1043606 -0.018331211 -8.1062174 -49.231167 44.644356
162915000 -49.310467 45.161728 -0.018863112 -8.1960068 -0.018761717 -8.1939821 -48.934017 43.540054
164714000 -49.131081 47.643116 -0.019484783 -8.2840052 -0.019044844 -8.2851238 -49.131226 43.905231
166513000 -48.954853 45.748318 -0.019675385 -8.3734627 -0.018869871 -8.3737812 -49.121544 44.783653
168312000 -49.102814 45.389973 -0.019297831 -8.4632978 -0.019195126 -8.4652891 -48.954758 43.553875
170111000 -49.058266 44.778854 -0.019735713 -8.5554895 -0.018374104 -8.5509996 -48.947247 44.859818
171910000 -48.777817 45.217594 -0.020010583 -8.6472244 -0.018976206 -8.641408 -48.97998 43.79369
173709000 -48.847736 44.724491 -0.019697748 -8.7367802 -0.019619737 -8.7301664 -48.923412 43.753723
175508000 -48.792973 46.126068 -0.020051152 -8.8208828 -0.019343853 -8.8209629 -48.822956 43.139282
177307000 -48.651772 44.288956 -0.02008782 -8.9113255 -0.019925026 -8.9117146 -48.639351 43.944908
179106000 -48.634487 44.907299 -0.019703729 -9.0032187 -0.019665763 -9.0014334 -48.670033 43.33078
180905000 -48.670063 44.146099 -0.021415628 -9.092638 -0.019701388 -9.0903502 -48.682411 42.417881
182704000 -48.691525 44.989922 -0.020901363 -9.1836376 -0.019656662 -9.1748114 -48.480297 41.954731
184503000 -48.411175 44.716957 -0.020766368 -9.2712746 -0.019770039 -9.2682285 -48.576782 41.750225
186302000 -48.367058 44.254196 -0.020720331 -9.3561935 -0.02039236 -9.3593264 -48.337711 41.480026
188101000 -48.48597 44.039555 -0.020928675 -9.446661 -0.020292493 -9.4471416 -48.37117 41.478477
189900000 -48.377094 43.898537 -0.021294665 -9.5415468 -0.019751316 -9.5362816 -48.511028 41.300766
191699000 -48.412193 43.749893 -0.022384234 -9.6347303 -0.020498734 -9.6274004 -48.17746 41.090549
193498000 -48.122421 43.231045 -0.021812359 -9.7174196 -0.020618374 -9.713131 -48.425499 42.817318
195297000 -48.325081 43.22131 -0.02190784 -9.8068142 -0.021190874 -9.8081656 -48.293903 42.342342
197096000 -48.320358 43.655025 -0.021674475 -9.8945913 -0.021825107 -9.8971615 -48.47929 40.940563
198895000 -48.383354 43.640129 -0.021393256 -9.9915361 -0.021235615 -9.9913063 -48.257458 40.028732
200694000 -48.075455 42.490402 -0.021767871 -10.077452 -0.021705953 -10.074127 -48.224834 40.527027
202493000 -48.166733 43.04427 -0.022093084 -10.167184 -0.021708814 -10.168357 -48.183144 40.80695
204292000 -48.093605 42.735558 -0.021785561 -10.260623 -0.022507571 -10.251161 -48.197086 39.841892
206091000 -48.165852 41.972031 -0.02183057 -10.347397 -0.022677748 -10.341759 -48.068913 41.100876
207890000 -48.101578 42.280651 -0.022166716 -10.434671 -0.022835441 -10.436032 -47.994953 41.208755
209689000 -48.301567 41.086929 -0.022626486 -10.524727 -0.021819644 -10.525051 -48.11861 41.163879
211488000 -47.996349 42.881248 -0.022448504 -10.614683 -0.022159951 -10.618587 -47.947948 39.94173
213287000 -47.689056 41.334358 -0.021686962 -10.705372 -0.023316102 -10.701887 -47.894459 39.835373
215086000 -47.90451 41.749554 -0.023415258 -10.790195 -0.022161772 -10.787707 -47.798424 40.189796
216885000 -47.842331 42.785896 -0.02281202 -10.886769 -0.022910645 -10.878655 -47.909306 40.295834
218684000 -47.804653 43.153107 -0.023294501 -10.973607 -0.022995742 -10.973935 -47.846272 40.594585
220483000 -47.928566 41.990967 -0.023123778 -11.062626 -0.023008753 -11.062035 -47.873974 39.291344
222282000 -47.526054 41.716042 -0.023280187 -11.158179 -0.023291638 -11.155369 -47.581402 40.919079
224081000 -47.398838 41.844452 -0.023600306 -11.245907 -0.023563089 -11.238778 -47.850655 39.922577
225880000 -47.493027 38.780319 -0.024048515 -11.32583 -0.023389494 -11.330743 -47.834198 40.557915
227679000 -47.511711 40.656475 -0.022975704 -11.411841 -0.024031857 -11.416746 -47.652145 40.215668
229478000 -47.276367 39.646099 -0.024822187 -11.509358 -0.023857461 -11.509711 -47.768333 39.460033
231277000 -47.370975 39.126575 -0.02381946 -11.599496 -0.024261704 -11.59862 -47.384754 40.22039
233076000 -47.595879 40.461967 -0.024536079 -11.686617 -0.022633251 -11.690701 -47.55529 39.593002
234875000 -47.261047 40.097622 -0.024463709 -11.775183 -0.024741221 -11.777756 -47.353676 40.337009
236674000 -47.060413 41.369556 -0.025399407 -11.864032 -0.025225999 -11.868341 -47.555916 39.861248
238473000 -47.023941 40.795918 -0.024776628 -11.958483 -0.025122374 -11.955576 -47.394173 40.72974
240272000 -47.214455 40.608032 -0.0264025 -12.043931 -0.023852516 -12.046132 -47.239975 39.400032
242071000 -47.19043 39.792229 -0.025964204 -12.137605 -0.024823228 -12.135837 -47.292789 39.48328
243870000 -47.049431 39.253113 -0.024899511 -12.22129 -0.026039204 -12.227281 -47.125019 39.264294
245669000 -46.887695 39.310776 -0.025159346 -12.316284 -0.025231466 -12.315208 -47.304672 40.305439
247468000 -46.938713 39.821468 -0.025964204 -12.398754 -0.024312725 -12.407435 -47.346081 38.149597
249267000 -46.9203 39.721687 -0.025180696 -12.497325 -0.026442867 -12.490733 -47.071472 38.878902
251066000 -46.72279 38.225334 -0.027034368 -12.581505 -0.026807239 -12.580188 -47.594227 41.401211
252865000 -47.003555 39.294598 -0.025946757 -12.659305 -0.026044412 -12.669502 -47.200977 40.974472
254664000 -46.898319 39.378139 -0.026374372 -12.753674 -0.025399147 -12.761648 -47.284718 39.789845
256463000 -46.571812 39.375889 -0.026441826 -12.846495 -0.025938423 -12.846809 -47.146385 43.439732
258262000 -46.74543 39.522457 -0.026306398 -12.942371 -0.025803011 -12.938415 -46.982861 41.776974
260061000 -46.597649 39.59359 -0.027547536 -13.029581 -0.026892932 -13.020506 -47.061043 39.420494
261860000 -46.445961 39.943623 -0.026638463 -13.120576 -0.027934145 -13.120625 -46.893333 39.352711
263659000 -46.283127 39.735611 -0.028560765 -13.209941 -0.02620431 -13.202191 -46.786007 40.078884
265458000 -46.231968 39.333603 -0.025873061 -13.30172 -0.027916951 -13.305114 -46.756706 39.922352
267257000 -45.909363 38.292538 -0.026109256 -13.37456 -0.026746552 -13.383664 -46.620689 40.804543
269056000 -46.003662 41.09679 -0.027171642 -13.47476 -0.027147938 -13.467663 -46.579029 39.181328
270855000 -45.99926 38.524708 -0.028428661 -13.56246 -0.027922422 -13.572179 -46.586655 37.818176
272654000 -45.806713 38.687241 -0.028486766 -13.641995 -0.026893713 -13.648789 -46.65295 38.74535
274453000 -45.77861 37.928047 -0.028047217 -13.743163 -0.026180873 -13.746208 -46.658497 42.464783
276252000 -45.663155 39.090961 -0.025605891 -13.8313 -0.029659197 -13.836983 -46.592327 38.853294
278051000 -45.533741 38.241894 -0.02809203 -13.918908 -0.028724145 -13.926958 -46.674686 39.683556
279850000 -45.625988 38.273525 -0.027855467 -14.012766 -0.027415462 -14.015001 -46.198338 39.45789
281649000 -45.366684 38.24057 -0.028074052 -14.094437 -0.027343825 -14.097696 -46.385433 40.645058
283448000 -45.496132 38.151066 -0.028724667 -14.19075 -0.028850006 -14.190965 -46.555283 39.591064
285247000 -45.362823 39.116676 -0.028920103 -14.28221 -0.028644409 -14.277662 -46.28857 39.562901
287046000 -45.302929 38.066021 -0.029271392 -14.364948 -0.028372901 -14.378324 -46.388165 39.729515
288845000 -45.303909 37.964359 -0.02950282 -14.453906 -0.028105577 -14.461522 -46.043358 40.145309
290644000 -45.150612 38.491627 -0.030724537 -14.553559 -0.02949865 -14.548011 -46.036091 39.562336
292443000 -45.159294 36.064255 -0.029918795 -14.635903 -0.028121211 -14.635905 -46.296539 41.486893
294242000 -45.19949 36.56876 -0.029301623 -14.728907 -0.029026946 -14.726696 -45.852318 40.582535
296041000 -45.184002 37.265308 -0.028911764 -14.815226 -0.029326642 -14.82111 -45.880802 40.787849
297840000 -45.076672 36.993233 -0.029204154 -14.900927 -0.029252367 -14.901114 -46.165043 37.574463
299639000 -45.052158 36.631725 -0.028845055 -14.994852 -0.029668059 -14.996466 -45.671272 39.136665
301438000 -45.07822 37.692928 -0.029695947 -15.089326 -0.029949032 -15.081495 -46.220844 39.168541
303237000 -45.100502 36.994026 -0.029493177 -15.17424 -0.02897587 -15.178147 -45.883682 40.130917
305036000 -44.983856 37.210381 -0.02985207 -15.272529 -0.030710198 -15.260143 -45.748447 38.849369
306835000 -45.030041 37.471657 -0.030600708 -15.346858 -0.029629746 -15.351632 -45.613651 39.95697
308634000 -44.78175 37.51992 -0.028892482 -15.434505 -0.030234454 -15.432582 -45.749454 40.539795
310433000 -44.754852 37.519585 -0.028875021 -15.526613 -0.030710459 -15.528546 -45.560543 39.958443
312232000 -44.850082 36.722004 -0.02990837 -15.624766 -0.031241791 -15.619101 -45.550842 38.522038
314031000 -44.747002 37.956821 -0.029925834 -15.706046 -0.031361468 -15.707917 -45.461342 39.913811
315830000 -44.997211 38.220207 -0.030602792 -15.806728 -0.030218292 -15.794282 -45.338913 39.347488
317629000 -44.669815 36.74073 -0.030088743 -15.880622 -0.030564472 -15.888142 -45.55497 41.901031
319428000 -44.697464 39.080505 -0.030453941 -15.975664 -0.030670574 -15.973975 -45.27375 39.190037
321227000 -44.54752 37.791775 -0.030406497 -16.064615 -0.030351756 -16.061832 -45.453148 38.619099
323026000 -44.336075 39.225391 -0.030449249 -16.155849 -0.030396853 -16.152826 -45.427719 39.436134
324825000 -44.6269 36.557953 -0.032045431 -16.242693 -0.030466715 -16.24222 -45.190632 40.498634
326624000 -44.704765 35.46006 -0.032400362 -16.332979 -0.031572148 -16.341957 -44.987877 38.336895
328423000 -44.485023 39.129723 -0.030853063 -16.423136 -0.031613085 -16.414385 -44.860184 39.150509
330222000 -44.597385 38.668056 -0.030737311 -16.516727 -0.03164646 -16.514767 -45.109955 38.988056
332021000 -44.51672 37.418499 -0.032062121 -16.606569 -0.03186211 -16.597315 -44.831169 39.424629
333820000 -44.684361 39.931355 -0.032167997 -16.690042 -0.031838119 -16.694199 -44.925064 37.684826
335619000 -44.316311 38.463837 -0.032381065 -16.782032 -0.032495555 -16.777613 -45.078991 38.654213
337418000 -44.446934 37.826321 -0.031530429 -16.871023 -0.031847507 -16.869915 -44.662037 37.973091
339217000 -44.275585 39.174389 -0.031610217 -16.95653 -0.032166693 -16.965763 -44.752483 35.701958
341016000 -44.539459 38.293335 -0.032217808 -17.045181 -0.032157045 -17.048824 -44.760574 37.215958
342815000 -44.301552 38.640572 -0.032392278 -17.135738 -0.032012314 -17.125834 -44.435314 34.985992
344614000 -44.363922 39.045902 -0.03215548 -17.229101 -0.033009108 -17.228214 -44.653324 36.837799
346413000 -44.212753 39.34095 -0.033372466 -17.319334 -0.032013096 -17.315756 -44.44191 37.212433
348212000 -44.181252 39.098225 -0.033297081 -17.404377 -0.032646824 -17.404007 -44.659676 34.518909
350011000 -44.173824 39.149799 -0.031920783 -17.494829 -0.033426985 -17.495592 -44.549072 36.993858
351810000 -44.133591 40.387653 -0.033386815 -17.58462 -0.032672383 -17.586454 -44.735119 37.277863
353609000 -44.251629 40.314785 -0.032359939 -17.668341 -0.033522982 -17.673386 -44.50219 35.370277
355408000 -44.367256 39.830948 -0.032323949 -17.753937 -0.032919642 -17.75832 -44.550224 35.552166
357207000 -44.344978 37.882004 -0.033871774 -17.849072 -0.033216476 -17.844889 -44.302979 36.034859
359006000 -44.215733 40.357521 -0.033967782 -17.939962 -0.033616897 -17.937006 -44.40802 35.127377
360805000 -44.252174 40.571114 -0.034221377 -18.02043 -0.034203112 -18.0313 -44.239349 35.858204
362604000 -44.098148 40.118835 -0.035314977 -18.111179 -0.034066662 -18.121353 -44.126301 35.826992
364403000 -44.14497 40.558849 -0.033667766 -18.205273 -0.032611094 -18.210804 -44.094807 34.734921
366202000 -44.124241 40.993099 -0.034819938 -18.293011 -0.034383405 -18.299124 -44.084774 34.382599
