!Keysight Technologies,N5242B,US61255121,A.15.50.07
!Date: Friday, October 24, 2025 13:13:50
!Correction: S11(Cdelta 2-Port  ) 
!S21(Cdelta 2-Port  ) 
!S12(Cdelta 2-Port  ) 
!S22(Cdelta 2-Port  ) 
!S2P File: Measurements: S11, S21, S12, S22:
# Hz S  dB   R 50
10000000 -0.0172858 -37.929855 -75.745819 -45.732643 -65.882614 16.518982 -57.45776 56.187859
11000000 -0.018838672 -41.49931 -78.455757 -92.828484 -64.684669 -105.69904 -56.729626 44.004513
12000000 -0.020990321 -45.050251 -77.131897 63.292168 -81.238396 -151.59906 -66.005646 61.019619
13000000 -0.026198581 -48.541183 -71.164337 88.871597 -70.53273 105.10648 -60.54417 88.633224
14000000 -0.030110117 -51.935299 -70.045998 70.580666 -63.150249 26.211905 -56.843102 63.213066
15000000 -0.037133299 -55.272648 -70.019295 67.718842 -81.671005 107.6162 -57.173069 32.718971
16000000 -0.041813109 -58.582184 -72.304291 79.778351 -70.426292 -59.340023 -56.244152 55.425549
17000000 -0.049724221 -61.787422 -67.037636 67.819923 -81.845276 16.556385 -58.626652 52.57616
18000000 -0.055504005 -64.96402 -63.393055 71.894043 -75.247528 -12.593493 -64.496872 65.473267
19000000 -0.061718401 -68.037796 -62.968319 72.365311 -70.410782 7.0953655 -55.580521 36.110607
20000000 -0.06673076 -71.072525 -60.352066 63.550095 -70.651161 -71.872284 -57.597187 59.549885
21000000 -0.075306088 -74.0364 -59.629681 55.290363 -66.666649 -20.762125 -64.010132 27.688541
22000000 -0.081074938 -76.922424 -58.199829 61.469154 -73.370613 58.027054 -56.67123 53.647148
23000000 -0.089059018 -79.744232 -57.419888 55.079662 -71.051613 131.32906 -58.486736 38.888302
24000000 -0.094747759 -82.506874 -56.134865 48.483612 -73.897949 173.90195 -57.890598 28.6196
25000000 -0.10295928 -85.193535 -55.201645 48.80447 -72.350708 -42.086872 -57.430317 48.40472
26000000 -0.1107256 -87.827286 -53.997379 46.94136 -79.000969 -139.336 -56.529484 32.359425
27000000 -0.11803874 -90.396698 -53.057087 42.177742 -77.784515 -111.05924 -55.666534 39.895016
28000000 -0.12656976 -92.905144 -52.212414 38.849834 -75.449615 -116.62325 -55.263947 42.873665
29000000 -0.13374093 -95.342171 -51.592434 35.828522 -83.148445 -151.2735 -57.420906 43.247902
30000000 -0.14225954 -97.731895 -50.970474 32.797508 -81.146973 -33.633202 -55.575481 39.893696
31000000 -0.14937845 -100.05727 -50.142246 31.31698 -73.805717 52.837849 -55.08551 42.070984
32000000 -0.15865189 -102.34013 -49.522068 30.429825 -82.798462 -54.158192 -55.255028 37.718239
33000000 -0.16630848 -104.55169 -48.803024 27.440517 -71.293076 -158.91689 -54.560387 41.358814
34000000 -0.17422757 -106.71529 -47.940323 25.092535 -72.74942 91.281097 -54.219864 46.530685
35000000 -0.18160477 -108.83601 -47.194195 24.017572 -72.285339 133.59669 -55.951504 49.587254
36000000 -0.19082996 -110.89585 -46.600143 21.294287 -86.157791 -136.46851 -54.185722 34.953953
37000000 -0.1979816 -112.91158 -45.930649 19.321156 -77.461044 -162.76091 -53.477222 43.998646
38000000 -0.20649888 -114.88231 -45.361057 17.226013 -73.00293 156.9772 -53.256695 34.685329
39000000 -0.21286859 -116.80633 -44.723621 14.860982 -79.85981 -87.834717 -54.235989 41.502895
40000000 -0.2210703 -118.69014 -44.090351 12.648191 -81.708954 67.783211 -53.269566 38.571098
41000000 -0.23007873 -120.52782 -43.554676 10.792556 -74.133476 103.29743 -53.514938 37.598373
42000000 -0.23720539 -122.32806 -43.079857 8.0790205 -73.027695 132.06326 -53.721577 33.11071
43000000 -0.24602053 -124.08606 -42.58411 6.3609915 -77.403259 10.332707 -52.508438 40.024921
44000000 -0.25320855 -125.8138 -42.007751 4.6866913 -78.583748 128.50638 -52.053478 36.411301
45000000 -0.26083973 -127.49412 -41.491695 2.4911885 -86.760681 37.977615 -52.764194 35.844723
46000000 -0.26899025 -129.14214 -41.14257 0.33179188 -74.359848 -77.007698 -52.306572 33.129391
47000000 -0.27649698 -130.76393 -40.619835 -1.6165178 -83.248642 126.41803 -51.784157 39.170177
48000000 -0.28370497 -132.34189 -40.166355 -3.7936454 -82.192886 48.324451 -52.479885 39.401028
49000000 -0.29161397 -133.89432 -39.681305 -5.4842358 -81.730385 -153.05023 -51.531124 35.340584
50000000 -0.29944971 -135.41476 -39.340294 -7.5461707 -85.315125 -95.497101 -51.309574 34.694202
51000000 -0.30645233 -136.90042 -38.923809 -9.3244934 -83.411697 161.91946 -51.794338 33.099915
52000000 -0.31443155 -138.3625 -38.481155 -11.25247 -86.834198 76.80265 -51.731831 34.975163
53000000 -0.32223195 -139.79524 -38.12429 -13.193199 -76.891174 9.7644825 -51.327332 31.315489
54000000 -0.32911363 -141.21172 -37.699314 -15.043584 -71.295662 92.118103 -51.28064 29.973499
55000000 -0.33617938 -142.59265 -37.354084 -17.065416 -78.16275 -65.42746 -51.359459 30.21047
56000000 -0.3434197 -143.94835 -37.002712 -18.421278 -76.855164 49.561268 -51.063171 32.137981
57000000 -0.35052699 -145.28166 -36.655319 -20.485371 -89.092781 35.243347 -50.396706 31.069094
58000000 -0.35781968 -146.59325 -36.324524 -22.162539 -78.384056 113.2923 -51.647545 27.45207
59000000 -0.36534199 -147.8792 -35.980179 -24.155439 -88.795128 139.90993 -50.180759 23.691597
60000000 -0.37276959 -149.14584 -35.640224 -25.632116 -78.643196 97.614708 -50.418827 26.476397
61000000 -0.38028482 -150.39394 -35.305634 -27.323107 -77.863976 100.5325 -49.729702 24.609982
62000000 -0.38729966 -151.61342 -35.018299 -28.940973 -77.145775 -9.8310528 -50.00127 25.703417
63000000 -0.39517662 -152.81665 -34.686253 -30.661232 -77.514587 -113.65601 -50.125187 22.577229
64000000 -0.4025535 -154.00783 -34.394718 -32.465366 -80.560165 81.50515 -49.001049 20.744949
65000000 -0.4087463 -155.17915 -34.105904 -34.046455 -76.143547 165.71808 -49.198513 21.274101
66000000 -0.41597196 -156.32698 -33.828979 -35.673244 -71.446281 -146.97682 -49.61861 20.511665
67000000 -0.42334434 -157.46234 -33.524151 -37.183956 -73.514328 138.85059 -49.431946 21.623226
68000000 -0.43043715 -158.57997 -33.255455 -38.848072 -80.508133 164.35243 -49.429405 17.271942
69000000 -0.4384034 -159.68137 -32.982677 -40.257061 -76.201096 -160.08667 -49.065559 16.043341
70000000 -0.44429687 -160.76901 -32.710915 -41.87624 -79.073524 163.38261 -49.662273 14.514089
71000000 -0.45207745 -161.84001 -32.446075 -43.497082 -83.481552 -157.6409 -48.908337 16.613327
72000000 -0.45907983 -162.89519 -32.184982 -45.005924 -87.979523 63.460068 -49.062363 13.470236
73000000 -0.46657598 -163.94167 -31.923458 -46.554802 -79.943558 -91.81739 -48.768711 14.526493
74000000 -0.47351751 -164.97343 -31.668568 -48.041744 -95.538467 -82.964973 -48.465916 13.193621
75000000 -0.48005179 -165.99086 -31.434143 -49.685928 -91.162315 -90.034355 -48.693527 13.895296
76000000 -0.48786807 -166.99606 -31.177448 -51.024269 -81.092522 162.77313 -48.821346 9.5196371
77000000 -0.49506393 -167.98344 -30.940565 -52.496513 -91.372604 149.60362 -48.848167 8.1056852
78000000 -0.50190097 -168.96689 -30.714312 -54.002319 -75.353119 176.81053 -48.627369 8.6773825
79000000 -0.50968128 -169.937 -30.48345 -55.487583 -76.292488 108.88679 -48.878021 8.5800076
80000000 -0.51636177 -170.89612 -30.261269 -56.969948 -80.096832 139.99426 -48.434677 6.9676952
81000000 -0.52373153 -171.84502 -30.03331 -58.434811 -75.431602 142.68483 -48.316795 6.7698216
82000000 -0.53072619 -172.78169 -29.802828 -59.891586 -75.191772 153.47807 -47.976048 5.1608076
83000000 -0.5384239 -173.70644 -29.593662 -61.368847 -81.982895 161.50816 -48.137989 6.0229564
84000000 -0.54590017 -174.62442 -29.377443 -62.65168 -71.122482 123.39723 -48.124271 6.2363753
85000000 -0.55397743 -175.53122 -29.157801 -64.126869 -86.126289 102.7251 -48.277126 0.68623292
86000000 -0.56051677 -176.43021 -28.956345 -65.587746 -75.777908 140.22615 -48.212975 2.8944433
87000000 -0.56828666 -177.3237 -28.755552 -66.986931 -80.658829 -153.58318 -48.181427 0.27022067
88000000 -0.57563603 -178.20111 -28.55406 -68.379326 -77.957191 113.29684 -47.956856 2.4446049
89000000 -0.58403981 -179.07596 -28.352867 -69.757561 -73.561287 106.27376 -47.858997 -0.97554356
90000000 -0.59100717 -179.93872 -28.149683 -71.169975 -77.269363 119.68534 -48.423119 -0.79084969
91000000 -0.59853745 179.2039 -27.956461 -72.528358 -76.930847 126.01456 -48.253963 -2.5814531
92000000 -0.60607815 178.35706 -27.767305 -73.923859 -78.755478 136.36812 -47.711052 -4.3443079
93000000 -0.61378157 177.51967 -27.572561 -75.266884 -78.41198 140.03104 -47.902531 -4.4267077
94000000 -0.62171501 176.68311 -27.391047 -76.596329 -80.098282 130.42168 -47.687588 -6.0695071
95000000 -0.62963599 175.85555 -27.212379 -77.964203 -74.540825 107.95638 -47.667366 -8.5932608
96000000 -0.63675731 175.03784 -27.025972 -79.374557 -75.150887 127.44841 -47.490429 -7.5156527
97000000 -0.64511842 174.22136 -26.849464 -80.653412 -76.082329 122.48392 -47.904751 -8.7497673
98000000 -0.65275818 173.41682 -26.67774 -81.978752 -78.374527 114.37972 -47.498112 -8.7455425
99000000 -0.66095579 172.61629 -26.494522 -83.356514 -77.332977 61.598717 -47.798645 -10.633572
100000000 -0.6689083 171.82256 -26.322252 -84.647629 -75.683807 90.688423 -47.65913 -11.842244
101000000 -0.67630154 171.03517 -26.153692 -85.992661 -72.884842 119.55556 -47.436283 -13.312922
102000000 -0.68492979 170.25398 -25.984558 -87.343346 -77.489891 104.94875 -47.684059 -12.659179
103000000 -0.69247758 169.47528 -25.821995 -88.623383 -83.450615 120.98822 -47.815289 -14.776993
104000000 -0.70058966 168.70813 -25.65753 -89.942108 -77.338333 104.98791 -47.409824 -16.212891
105000000 -0.70935082 167.94226 -25.491371 -91.20874 -77.656631 138.33707 -47.489151 -15.983581
106000000 -0.71789789 167.17575 -25.331081 -92.597969 -74.73494 108.17464 -47.636417 -17.000809
107000000 -0.72584772 166.42438 -25.173788 -93.850487 -81.542549 68.554634 -47.423515 -18.577806
108000000 -0.73415393 165.6725 -25.021408 -95.151779 -77.56485 96.705574 -47.464539 -21.608223
109000000 -0.74271345 164.92882 -24.861038 -96.414032 -78.120087 66.478134 -47.360207 -19.425173
110000000 -0.75116032 164.19019 -24.704262 -97.710098 -74.421379 108.58078 -47.129593 -22.069584
111000000 -0.75924999 163.45389 -24.560869 -98.991486 -75.261261 84.26236 -47.603508 -24.023603
112000000 -0.76867449 162.72113 -24.412146 -100.24693 -72.814507 82.168373 -47.278542 -24.382389
113000000 -0.77711505 161.9911 -24.260963 -101.53432 -73.083145 80.740097 -47.322994 -24.600178
114000000 -0.78593349 161.26549 -24.11548 -102.83298 -79.274582 89.79628 -47.462276 -26.534779
115000000 -0.79510462 160.54501 -23.973242 -104.09079 -75.432373 68.168068 -47.119537 -29.143106
116000000 -0.80338502 159.83307 -23.827259 -105.34702 -72.477623 79.596611 -47.340271 -29.428116
117000000 -0.81273764 159.12444 -23.688126 -106.58456 -72.145584 92.812943 -47.302273 -28.083815
118000000 -0.82167161 158.41335 -23.543772 -107.85908 -78.074158 95.090736 -47.091225 -31.279343
119000000 -0.83074313 157.71121 -23.410023 -109.10967 -72.498711 77.37291 -47.324341 -29.933479
120000000 -0.83994353 157.01251 -23.270826 -110.35537 -76.227776 94.086365 -47.584991 -32.835438
121000000 -0.84927958 156.31288 -23.139296 -111.60614 -73.564766 77.480293 -47.446327 -36.194176
122000000 -0.85871559 155.6194 -22.998116 -112.84364 -72.178406 96.097046 -47.194946 -36.187981
123000000 -0.86789995 154.93489 -22.866638 -114.07579 -75.817253 116.0896 -47.478893 -36.575542
124000000 -0.87725049 154.2469 -22.738022 -115.32418 -69.306175 74.032509 -47.363747 -39.332287
125000000 -0.88763219 153.5652 -22.603975 -116.55602 -72.469612 91.870758 -47.51963 -40.294823
126000000 -0.89732766 152.88519 -22.476974 -117.81713 -73.580101 101.21195 -47.430588 -41.178467
127000000 -0.90702921 152.20255 -22.348616 -119.03318 -72.278015 100.61799 -47.152531 -42.313591
128000000 -0.91690463 151.53149 -22.219116 -120.26219 -72.076607 56.527199 -47.29871 -42.731815
129000000 -0.92685676 150.85851 -22.095362 -121.48155 -70.562065 62.823635 -47.279972 -43.661701
130000000 -0.93762928 150.19556 -21.974119 -122.69912 -73.445816 67.312134 -47.254566 -43.54261
131000000 -0.94784641 149.52353 -21.847584 -123.91386 -69.576019 64.151985 -47.502533 -44.844791
132000000 -0.95787299 148.86873 -21.724115 -125.14455 -70.93837 68.108536 -47.430992 -47.715691
133000000 -0.96835297 148.20503 -21.60701 -126.35554 -73.952408 58.952885 -47.254036 -48.637432
134000000 -0.97845012 147.55228 -21.487366 -127.54859 -73.637848 52.983238 -47.430897 -49.196014
135000000 -0.98952448 146.89766 -21.371548 -128.78418 -70.056717 68.907791 -47.125996 -50.701565
136000000 -1.0000236 146.24513 -21.249016 -129.98445 -70.08683 57.139374 -47.325401 -52.522804
137000000 -1.0110703 145.59474 -21.1346 -131.18977 -71.270485 55.325977 -47.337936 -54.917721
138000000 -1.0220467 144.95012 -21.020472 -132.39061 -71.316742 52.305202 -47.469868 -54.549473
139000000 -1.032655 144.30421 -20.906496 -133.61205 -72.198059 66.219162 -47.254917 -55.652428
140000000 -1.0436685 143.6586 -20.791353 -134.80078 -72.601158 63.557457 -47.477734 -55.564342
141000000 -1.0553232 143.02899 -20.679842 -136.00604 -72.005142 53.620144 -47.831928 -59.711582
142000000 -1.0666552 142.38504 -20.573402 -137.18893 -70.629303 50.911488 -47.394722 -61.590656
143000000 -1.0781894 141.75195 -20.46353 -138.37897 -70.689545 62.287727 -47.50766 -61.322689
144000000 -1.0899212 141.11913 -20.357733 -139.5694 -70.901894 63.902901 -47.357849 -61.976009
145000000 -1.1007802 140.48705 -20.247616 -140.78242 -72.514542 56.043278 -47.499901 -64.043816
146000000 -1.1126436 139.8591 -20.14122 -141.96931 -69.458199 36.802872 -47.472191 -65.434364
147000000 -1.1252096 139.23015 -20.039896 -143.1351 -71.337257 37.530632 -48.016151 -65.225143
148000000 -1.1378094 138.60635 -19.930471 -144.34111 -69.763458 45.031208 -47.767555 -70.317177
149000000 -1.1496605 137.98645 -19.830355 -145.52322 -67.735947 56.420307 -47.437618 -70.520096
150000000 -1.162003 137.3633 -19.725437 -146.68333 -70.5924 47.598728 -47.75893 -68.948128
151000000 -1.1739417 136.74672 -19.630186 -147.88492 -70.422722 60.772926 -47.287971 -72.61631
152000000 -1.1863029 136.13025 -19.526106 -149.05653 -67.572868 46.196053 -47.911278 -71.469437
153000000 -1.1993475 135.5161 -19.425587 -150.21492 -67.948372 53.26532 -47.606384 -73.585587
154000000 -1.212706 134.90147 -19.329014 -151.39719 -69.302101 44.315792 -47.868534 -75.430923
155000000 -1.2250786 134.293 -19.230335 -152.57512 -66.598434 48.458363 -47.734276 -74.668861
156000000 -1.2372565 133.68594 -19.13303 -153.74509 -68.733078 46.800419 -47.690586 -79.060379
157000000 -1.2500994 133.07539 -19.037153 -154.91318 -71.169731 46.103233 -47.672729 -82.191742
158000000 -1.2634133 132.47185 -18.944796 -156.08524 -68.173782 35.552807 -47.385006 -83.206207
159000000 -1.2778004 131.87099 -18.850849 -157.23933 -68.947807 22.53499 -47.496613 -85.794701
160000000 -1.290018 131.26387 -18.759357 -158.42911 -67.379684 43.524639 -47.412971 -83.286049
161000000 -1.3039721 130.65778 -18.666422 -159.58432 -69.194252 23.094109 -47.710476 -86.543678
162000000 -1.3175039 130.06001 -18.572859 -160.73949 -71.023499 31.373669 -47.611038 -87.863678
163000000 -1.3308153 129.46204 -18.480667 -161.90825 -66.114426 25.980085 -47.410637 -90.191498
164000000 -1.3443214 128.86771 -18.390291 -163.06937 -71.331543 30.320047 -47.586201 -91.736084
165000000 -1.3588822 128.2708 -18.30291 -164.22725 -70.685898 20.560659 -47.425278 -93.670044
166000000 -1.372612 127.67841 -18.21492 -165.36603 -66.873764 23.607105 -47.511383 -94.738373
167000000 -1.386884 127.0862 -18.126442 -166.54149 -66.492348 22.812317 -47.512627 -94.14566
168000000 -1.4016528 126.49477 -18.037903 -167.68422 -69.69323 12.691301 -47.638737 -98.025093
169000000 -1.4163916 125.90898 -17.9531 -168.8436 -67.066948 21.495197 -47.424706 -97.577217
170000000 -1.4301839 125.31755 -17.864773 -169.99585 -68.991051 12.316844 -47.593895 -101.51617
171000000 -1.445706 124.7311 -17.780497 -171.13573 -69.270393 24.652597 -47.325977 -101.41362
172000000 -1.4602091 124.14354 -17.695202 -172.30783 -66.77935 26.621546 -47.503113 -103.83981
173000000 -1.4754494 123.55955 -17.608625 -173.43878 -65.895279 4.8705587 -47.481556 -102.34767
174000000 -1.4908254 122.98059 -17.524147 -174.57893 -65.587013 17.488976 -47.563068 -107.26126
175000000 -1.5057069 122.39871 -17.440458 -175.73518 -68.865601 13.335497 -47.376553 -106.84357
176000000 -1.5222082 121.8163 -17.358013 -176.90399 -65.519188 17.174816 -47.053162 -110.12066
177000000 -1.5365384 121.234 -17.276978 -178.02985 -66.730896 19.007933 -47.301228 -111.20589
178000000 -1.5527766 120.65898 -17.193495 -179.17078 -67.481735 -2.7149348 -47.129211 -111.83769
179000000 -1.5689918 120.07516 -17.118685 179.6899 -67.449768 8.0661516 -47.44083 -112.49149
180000000 -1.5847917 119.50461 -17.037018 178.56078 -67.067078 24.550966 -47.202595 -115.62081
181000000 -1.600615 118.93264 -16.958361 177.42938 -67.308922 -1.0990911 -47.325535 -117.73873
182000000 -1.6168355 118.3571 -16.877306 176.272 -66.349274 16.288004 -47.314514 -118.99781
183000000 -1.6337457 117.78055 -16.803089 175.14651 -67.856506 4.3979955 -47.160267 -119.6442
184000000 -1.6508447 117.21213 -16.726393 173.99759 -65.845184 -7.591249 -47.431431 -120.8794
185000000 -1.6663765 116.64053 -16.647408 172.88394 -64.896126 0.034709699 -47.326496 -120.59781
186000000 -1.68278 116.07487 -16.573555 171.73572 -66.927551 17.342529 -46.993023 -126.46288
187000000 -1.7010459 115.50283 -16.498333 170.60258 -67.132919 2.7208436 -47.108517 -125.37442
188000000 -1.7178714 114.93572 -16.423037 169.48824 -64.262711 0.12603793 -47.178371 -126.9926
189000000 -1.733561 114.37132 -16.347679 168.35722 -65.821671 -7.0489297 -46.89397 -127.2047
190000000 -1.7517554 113.81098 -16.276415 167.21277 -66.583275 -4.4849052 -47.192123 -128.71559
191000000 -1.7692672 113.24503 -16.20282 166.08087 -65.972816 5.3228955 -46.873856 -132.36894
192000000 -1.7869807 112.6835 -16.131824 164.96701 -66.214928 -5.2981892 -47.030609 -133.13158
193000000 -1.8052336 112.12094 -16.062077 163.84483 -64.050461 1.7931873 -46.840996 -134.66524
194000000 -1.8229647 111.5613 -15.9949 162.70894 -64.769539 -3.6789238 -46.76405 -135.79715
195000000 -1.8420751 111.00708 -15.923535 161.5918 -66.914963 -2.1470621 -46.930172 -135.77762
196000000 -1.8595774 110.44425 -15.85549 160.46049 -65.722397 -7.7281337 -46.70652 -139.58434
197000000 -1.877573 109.89468 -15.786749 159.3382 -65.647644 -4.6232572 -46.758389 -141.46013
198000000 -1.8959928 109.34495 -15.717237 158.22092 -66.404137 -10.142447 -46.549065 -141.00986
199000000 -1.9148856 108.78914 -15.651155 157.09682 -65.793617 -12.334791 -46.58688 -143.4948
200000000 -1.9327108 108.23294 -15.588241 155.97479 -64.548065 -1.3814974 -46.667206 -144.48586
201000000 -1.9513319 107.68109 -15.519541 154.85139 -66.332939 -17.426096 -46.653 -143.63657
202000000 -1.9709581 107.1302 -15.455872 153.73967 -66.504875 -6.1199446 -46.569046 -146.91196
203000000 -1.9890448 106.58511 -15.392448 152.62991 -63.27972 -23.18442 -46.250645 -150.12241
204000000 -2.0097053 106.03717 -15.327446 151.51068 -64.525017 -11.875486 -46.258244 -150.07298
205000000 -2.0290987 105.48709 -15.265697 150.39063 -65.584152 -13.299534 -46.466816 -151.47429
206000000 -2.0491302 104.93665 -15.201099 149.27219 -66.021942 2.7273393 -46.322422 -153.13901
207000000 -2.0692449 104.40002 -15.140511 148.16136 -64.093018 -24.232481 -46.229534 -154.15828
208000000 -2.0879648 103.85257 -15.078074 147.06006 -63.845871 -23.095076 -46.481621 -156.61089
209000000 -2.1080589 103.30365 -15.017026 145.95456 -64.3367 -24.941801 -45.671539 -159.00357
210000000 -2.1280937 102.7652 -14.957032 144.84106 -64.994934 -12.420789 -46.208393 -158.44125
211000000 -2.1494558 102.21969 -14.900154 143.72304 -65.513077 -20.909819 -45.833702 -160.91443
212000000 -2.169728 101.68104 -14.837858 142.62344 -64.629822 -25.843031 -46.022057 -160.13757
213000000 -2.1895378 101.1412 -14.77482 141.51045 -65.932358 -29.232712 -45.86911 -162.3282
214000000 -2.2105012 100.60599 -14.716952 140.41144 -66.012047 -24.889442 -45.930603 -166.23175
215000000 -2.2310841 100.06635 -14.656346 139.287 -64.874214 -32.38224 -45.89946 -163.22096
216000000 -2.2530437 99.528465 -14.600539 138.19463 -64.26001 -27.533031 -45.636051 -167.11679
