! Created Wed Feb 11 23:27:21 2026
# hz S db R 50
! 2 Port Network Data from SP1.SP block
! freq  dbS11  angS11  dbS21  angS21  dbS12  angS12  dbS22  angS22  
!     
200000000     -0.0473067653          -23.93202        -27.8764616        -103.174608        -93.5895903         167.819554       -0.141360551         144.334402
210000000     -0.0459059935        -25.1460246        -26.9597796        -114.984899         -92.249481         156.059703       -0.150467467         142.144127
220000000      -0.046032035        -26.3711578        -25.7702046        -123.262749        -90.6562185         147.832245       -0.160702449          139.86867
230000000     -0.0471340065        -27.6035412        -24.3566956        -129.739077         -88.857008         141.406268       -0.172409374         137.496366
240000000      -0.048889107        -28.8428248         -22.777892        -135.242466        -86.9089593         135.953196       -0.186010801          135.01296
250000000     -0.0511359433        -30.0897459        -21.0762739        -140.205214          -84.85321         131.040734       -0.202073786         132.400995
260000000     -0.0538006228        -31.3454894        -19.2795561        -144.877664        -82.7162909         126.418545       -0.221382302         129.638915
270000000     -0.0568582061        -32.6115412        -17.4048707        -149.421906        -80.5142838         121.924541        -0.24504172         126.699772
280000000     -0.0603145878        -33.8896951        -15.4620038        -153.956444        -78.2560393         117.440222       -0.274640765         123.549395
290000000     -0.0641991545        -35.1821252        -13.4555411        -158.580095        -75.9453061         112.866773       -0.312510961         120.143764
300000000     -0.0685644448        -36.4915115        -11.3862651        -163.386959        -73.5821149         108.110097       -0.362153947         116.425199
310000000     -0.0734927874        -37.8212305        -9.25211278        -168.478051        -71.1637231         103.069188       -0.428965833          112.31673
320000000     -0.0791152769         -39.175641        -7.04903151        -173.972667        -68.6854663          97.624745       -0.521505711         107.713703
330000000     -0.0856528976        -40.5605112        -4.77197477         179.978013        -66.1417413         91.6255908       -0.653790307          102.47115
340000000     -0.0935083359        -41.9836302        -2.41668776         173.173347        -63.5277866         84.8710823       -0.849597113         96.3848903
350000000      -0.103465684        -43.4555662       0.0167110612          165.34054        -60.8432578         77.0884292         -1.1508181         89.1641139
360000000      -0.117110245        -44.9901411         2.51633443         156.110436        -58.0996186         67.9084749         -1.6341892           80.39505
370000000      -0.137614776         -46.602861         5.04408153         145.011326         -55.334581         56.8595115         -2.4455853         69.5031291
380000000      -0.170754211        -48.3024743         7.51193438         131.543127        -52.6358055         43.4414581        -3.87188427         55.7317436
390000000       -0.22454448        -50.0696775         9.75989726          115.45604        -50.1629578         27.4045166        -6.50618823         38.0467401
400000000      -0.303825864        -51.8383029         11.5823033         97.2663945        -48.1214002         9.26501664        -11.8176881         13.2225239
410000000      -0.402271213        -53.5368765         12.8501664         78.4932501         -46.639836         -9.4579809        -23.1017588        -74.6008163
420000000      -0.507412317        -55.1744856         13.6272913         60.8828011        -45.6541993        -27.0182808        -12.9971458        -167.541369
430000000      -0.615614742        -56.8296981         14.1109328         45.3369591        -44.9669918        -42.5139706        -8.18614706         170.217778
440000000      -0.734464758        -58.5700263         14.4880979         31.8014289        -44.3909803        -55.9993448        -5.82357255         155.586829
450000000      -0.876463411        -60.4224128         14.8727967         19.7762067        -43.8119434        -67.9744066        -4.47567072         144.057151
460000000       -1.05597264        -62.3819116         15.3166303          8.6996539        -43.1780825        -79.0007938        -3.64863051         134.266144
470000000        -1.2897241        -64.4149288         15.8335243         -1.9167076        -42.4752877         -89.566984        -3.13036555         125.499963
480000000       -1.59806099        -66.4445664         16.4158104        -12.4739905        -41.7110542        -100.074089        -2.82362771         117.319964
490000000       -2.00478803        -68.3153027         17.0409646        -23.2996566        -40.9077439        -110.849571        -2.68749807         109.455747
500000000       -2.53250328        -69.7347752         17.6729026        -34.6493697        -40.1012888        -122.149092        -2.71293626          101.77453
510000000       -3.18705234        -70.2065483         18.2619783        -46.6820174        -39.3411907        -134.131542        -2.90923444         94.2933735
520000000        -3.9225625        -69.0358604         18.7483944        -59.4089609        -38.6871128         -146.80828        -3.28992895         87.2127344
530000000       -4.59450351        -65.6286563         19.0729926        -72.6450135        -38.1980861        -159.994118         -3.8518787         80.9236795
540000000       -4.97212623        -60.2458085         19.1951172         -86.013743        -37.9146462        -173.312624        -4.55018159         75.9089179
550000000       -4.90370752         -54.446238         19.1081294        -99.0451928        -37.8433184         173.706161        -5.28722751         72.4946139
560000000       -4.47300516        -49.9974512         18.8405622        -111.326469        -37.9554623         161.475129        -5.93913709         70.5725685
570000000       -3.89167604        -47.5413573         18.4419106        -122.609353        -38.2014813           150.2425        -6.41360633         69.5602949
580000000       -3.31935245        -46.7485107         17.9643942        -132.823597        -38.5290592         140.078523        -6.69068415         68.6998717
590000000        -2.8241718          -47.04377         17.4511231        -142.025305        -38.8949948         130.927094        -6.81085657         67.4192362
600000000       -2.41893925         -47.965371         16.9324927        -150.333736        -39.2688057         122.668953        -6.83439682         65.4591301
610000000       -2.09439726        -49.2165162         16.4275229        -157.885698        -39.6313884         115.167293        -6.81203176         62.7902627
620000000       -1.83579856        -50.6234637         15.9468098        -164.810559        -39.9720694         108.292746        -6.77660626         59.4899299
630000000       -1.62911492        -52.0890944         15.4953222        -171.220631        -40.2858053         101.933002         -6.7459418         55.6611088
640000000       -1.46277902        -53.5609022         15.0745201        -177.208963        -40.5710648         95.9950116        -6.72800709          51.397986
650000000       -1.32776138        -55.0115931          14.683797         177.149221        -40.8283865         90.4035506        -6.72503372         46.7765722
660000000       -1.21716191        -56.4279239         14.3214054           171.7939        -41.0594532         85.0986001        -6.73613036         41.8556723
670000000       -1.12573809        -57.8043993         13.9850333         166.677528         -41.266515         80.0326125        -6.75879072         36.6808901
680000000       -1.04949857        -59.1397323         13.6721532         161.762586        -41.4520404         75.1680706        -6.78973015          31.288805
690000000      -0.985386009        -60.4348587         13.3802297         157.019553        -41.6185082         70.4754533        -6.82535166         25.7104337
700000000      -0.931039513        -61.6918241         13.1068391         152.425255        -41.7682881         65.9315867        -6.86202014          19.973834
710000000      -0.884622085        -62.9131711          12.849723         147.961568        -41.9035864         61.5183453        -6.89624403         14.1059371
720000000        -0.8446847         -64.101574         12.6068575         143.614315        -42.0263777         57.2215544        -6.92480796         8.13366357
730000000      -0.810080173        -65.2596816         12.3764286         139.372494        -42.1384285         53.0302121        -6.94488848         2.08454954
740000000      -0.779891084        -66.3900142         12.1568451         135.227586        -42.2412844         48.9358007        -6.95414806        -4.01314176
750000000      -0.753378313        -67.4949204         11.9467309          131.17302        -42.3362777         44.9317483        -6.95080826         -10.130678
760000000      -0.729942486        -68.5765622         11.7449125         127.203734        -42.4245398         41.0129938        -6.93369474        -16.2393938
770000000      -0.709094826         -69.636915         11.5504048         123.315824        -42.5070157         37.1756328        -6.90224846         -22.311402
780000000      -0.690434889        -70.6777756         11.3623938         119.506254        -42.5844803          33.416632        -6.85650084        -28.3203612
790000000      -0.673633351        -71.7007729         11.1802202         115.772631        -42.6575557         29.7335955        -6.79701523        -34.2422017
800000000      -0.658418562        -72.7073814         11.0033614         112.113007        -42.7267285         26.1245786        -6.72480155        -40.0557194
810000000      -0.644564905        -73.6989221         10.8314367         108.525783        -42.7923414         22.5879853        -6.64119651        -45.7427043
820000000      -0.631887363        -74.6766095          10.664125          105.00946        -42.8546857         19.1223135        -6.54780728         -51.288994
830000000       -0.62023164        -75.6415277         10.5012155         101.562676          -42.91394         15.7262008        -6.44635377        -56.6836248
840000000        -0.6094696        -76.5946536         10.3425714         98.1840951        -42.9702103         12.3983125        -6.33859325        -61.9189538
850000000      -0.599494721        -77.5368668         10.1881163         94.8723634        -43.0235431         9.13729379        -6.22624368        -66.9903717
860000000      -0.590218347        -78.4689593         10.0378226         91.6260713        -43.0739372         5.94173601        -6.11092564        -71.8959349
870000000      -0.581566585        -79.3916442         9.89170098         88.4437357        -43.1213542         2.81015614        -5.99412252        -76.6359631
880000000      -0.573477753        -80.3055632         9.74979099         85.3237886        -43.1657276        -0.25901328        -5.87715688        -81.2126314
890000000       -0.56590025        -81.2112952          9.6121533         82.2645742        -43.2069708         -3.2674279        -5.76118049        -85.6295862
900000000      -0.558790798        -82.1093619         9.47886288          79.264351        -43.2449839        -6.21682886        -5.64717455        -89.8915961
910000000      -0.552114717        -83.0002386         9.34999365         76.3212704        -43.2796722         -9.1090688        -5.53596194        -94.0042376
920000000      -0.545839551        -83.8843488         9.22564326         73.4334691        -43.3109111        -11.9460064        -5.42820612        -97.9736764
930000000      -0.539939272        -84.7620805         9.10589986             70.599        -43.3385898        -14.7295886        -5.32444006         -101.80642
940000000      -0.534391729        -85.6337871         8.99084914         67.8158692        -43.3626005        -17.4618088        -5.22507812        -105.509163
950000000      -0.529178001         -86.499792         8.88057207         65.0820487        -43.3828412        -20.1446947        -5.13043248        -109.088653
960000000      -0.524281851         -87.360392         8.77514321         62.3954882        -43.3992165        -22.7802964        -5.04072879        -112.551594
970000000      -0.519689297        -88.2158613         8.67462967         59.7541252        -43.4116396        -25.3706763        -4.95612074        -115.904566
980000000      -0.515388258        -89.0664537         8.57909028         57.1558958        -43.4200321        -27.9178976        -4.87670308        -119.153977
990000000      -0.511368278        -89.9124062          8.4885752         54.5987436        -43.4243253        -30.4240165        -4.80252313         -122.30602
1e+09      -0.507620291        -90.7539408         8.40312573         52.0806271        -43.4244597        -32.8910743        -4.73359083        -125.366655
1.01e+09      -0.504132521         -91.591276         8.32279738         49.5995488        -43.4203612         -35.321075        -4.66989538        -128.341719
1.02e+09      -0.500902136        -92.4246012         8.24759159         47.1534975        -43.4120121        -37.7160226        -4.61138848        -131.236531
1.03e+09      -0.497923317        -93.2541055         8.17752397         44.7405145        -43.3993802        -40.0778756        -4.55801443        -134.056288
1.04e+09      -0.495191119          -94.07997         8.11260216         42.3586772        -43.3824418        -42.4085562        -4.50970726        -136.805932
1.05e+09      -0.492701406        -94.9023689         8.05282625         40.0061023        -43.3611811        -44.7099473        -4.46639499        -139.490162
1.06e+09      -0.490450796        -95.7214709         7.99818929         37.6809481        -43.3355898        -46.9838906        -4.42800304        -142.113438
1.07e+09      -0.488436628          -96.53744         7.94867767         35.3814157        -43.3056668        -49.2321845        -4.39445716        -144.679994
1.08e+09      -0.486656925         -97.350436         7.90427163         33.1057504        -43.2714174        -51.4565834        -4.36568565        -147.193849
1.09e+09      -0.485110379        -98.1606158         7.86494568         30.8522415        -43.2328531        -53.6587977        -4.34162132         -149.65882
1.1e+09      -0.483796342        -98.9681334         7.83066901         28.6192229        -43.1899912        -55.8404932        -4.32220293        -152.078532
1.11e+09      -0.482716644        -99.7731394         7.80139432         26.4050336        -43.1428657        -58.0033293        -4.30737953         -154.45641
1.12e+09       -0.48187013        -100.575785         7.77709274         24.2081319        -43.0914925        -60.1488488        -4.29710216        -156.795752
1.13e+09       -0.48125809         -101.37622         7.75771975         22.0269816        -43.0359038        -62.2785874        -4.29133396        -159.099678
1.14e+09      -0.480882462        -102.174591         7.74322681          19.860089        -42.9761359        -64.3940386        -4.29004767        -161.371164
1.15e+09      -0.480745843        -102.971046         7.73356179         17.7060004        -42.9122289        -66.4966558        -4.29322619         -163.61305
1.16e+09       -0.48085149        -103.765732         7.72866897         15.5633022        -42.8442272        -68.5878524        -4.30086299        -165.828051
1.17e+09      -0.481203339        -104.558795         7.72848947         13.4306184        -42.7721782        -70.6690038        -4.31296251        -168.018764
1.18e+09      -0.481806013        -105.350382         7.73296121         11.3066108        -42.6961331        -72.7414483        -4.32954048        -170.187682
1.19e+09      -0.482664838         -106.14064         7.74201916         9.18997659        -42.6161462         -74.806488        -4.35062427        -172.337195
1.2e+09      -0.483785855        -106.929715         7.75559538         7.07944816         -42.532275        -76.8653904         -4.3762531        -174.469605
1.21e+09      -0.485177763        -107.717742         7.77360207         4.97379383        -42.4445971        -78.9193858        -4.40647394        -176.587119
1.22e+09      -0.486846172         -108.50488         7.79598259         2.87181087        -42.3531593        -80.9696777        -4.44135516        -178.691886
1.23e+09      -0.488799377        -109.291276         7.82266076        0.772329711        -42.2580279        -83.0174353        -4.48097354         179.214023
1.24e+09      -0.491046459         -110.07708         7.85355766        -1.32578774        -42.1592727        -85.0637964          -4.525419         177.128602
1.25e+09      -0.493597301        -110.862439         7.88859168        -3.42364921        -42.0569658        -87.1098685        -4.57479504         175.049902
1.26e+09      -0.496462605        -111.647502          7.9276785        -5.52233235        -41.9511827        -89.1567288         -4.6292191         172.976028
1.27e+09      -0.499653915        -112.432418         7.97073111        -7.62288567        -41.8420016        -91.2054256        -4.68882306         170.905128
1.28e+09      -0.503183621        -113.217337         8.01765966        -9.72632749        -41.7295038        -93.2569769        -4.75375371         168.835395
1.29e+09      -0.507064986        -114.002408         8.06837154        -11.8336471        -41.6137734        -95.3123717        -4.82417331         166.765055
1.3e+09      -0.511312155         -114.78778         8.12277135        -13.9458046        -41.4948978        -97.3725697        -4.90026028         164.692367
1.31e+09      -0.515940009        -115.573599         8.18075801        -16.0637116        -41.3729659        -99.4384756         -4.9822081         162.615614
1.32e+09       -0.52096462        -116.360018         8.24223303        -18.1882856        -41.2480725        -101.511013        -5.07023104           160.5331
1.33e+09      -0.526402823        -117.147185         8.30709222         -20.320395        -41.1203141         -103.59105        -5.16456011         158.443146
1.34e+09      -0.532272366         -117.93525         8.37522858        -22.4608767        -40.9897903        -105.679424        -5.26544565          156.34408
1.35e+09      -0.538591896        -118.724359         8.44653207        -24.6105348        -40.8566038        -107.776938        -5.37315829         154.234235
1.36e+09      -0.545380958         -119.51466          8.5208898        -26.7701397        -40.7208604        -109.884362        -5.48799005         152.111941
1.37e+09      -0.552659983          -120.3063           8.598186        -28.9404263        -40.5826689        -112.002431        -5.61025562          149.97552
1.38e+09      -0.560450273        -121.099423          8.6783021        -31.1220932         -40.442141        -114.131843        -5.74029373         147.823272
1.39e+09      -0.568773968        -121.894173         8.76111679        -33.3158003        -40.2993914        -116.273257        -5.87846859         145.653475
1.4e+09      -0.577654029        -122.690693         8.84650621        -35.5221683        -40.1545374        -118.427294        -6.02517172         143.464368
1.41e+09      -0.587112909        -123.489137         8.93435301        -37.7417154        -40.0076946        -120.594482        -6.18080945         141.254243
1.42e+09      -0.597176313        -124.289635         9.02452003        -39.9750338        -39.8589893        -122.775403        -6.34584639          139.02113
