!Keysight Technologies,N5242B,US61255121,A.15.50.07
!Date: Friday, October 24, 2025 17:00:59
!Correction: S11(Off) 
!S21(Off) 
!S12(Off) 
!S22(Off) 
!S2P File: Measurements: S11, S21, S12, S22:
# Hz S  dB   R 50
10000000 0.51435173 33.593666 -69.716042 105.20606 -55.243778 -27.565765 -24.772226 -136.45345
11000000 0.37956589 22.404594 -63.509499 157.44511 -60.826717 11.369177 -25.225018 -139.05321
12000000 0.26388624 12.18444 -66.198784 129.02367 -58.64003 -9.8141718 -24.952021 -145.9894
13000000 0.1651988 2.6916375 -75.088608 129.28879 -59.401592 162.64087 -25.64776 -147.13998
14000000 0.077838369 -6.2874146 -70.897621 36.772491 -51.996822 90.035057 -26.143902 -152.44484
15000000 0.013090459 -14.866606 -68.04911 -134.72414 -55.894348 5.6423354 -26.064434 -156.24908
16000000 -0.048559185 -23.12319 -72.007416 -18.074932 -55.480324 89.313049 -26.554129 -159.89563
17000000 -0.10915732 -31.074793 -69.58181 -143.93671 -66.068123 76.089539 -26.822834 -162.51611
18000000 -0.1715306 -38.828053 -74.280502 83.540924 -69.673103 -51.07235 -27.025999 -164.85287
19000000 -0.22305965 -46.339684 -82.19899 -167.8154 -57.001556 -106.78948 -27.435299 -167.35353
20000000 -0.2475497 -53.654205 -76.474373 -137.62091 -61.427021 47.589191 -27.726194 -170.15837
21000000 -0.30813438 -60.804653 -87.98774 141.24036 -65.320847 143.19992 -27.956709 -175.43817
22000000 -0.32680243 -67.776016 -79.741219 146.92093 -56.844414 -126.35065 -28.174805 -176.21935
23000000 -0.37375692 -74.600479 -86.650017 -75.184616 -64.010216 16.447113 -28.508688 -179.2365
24000000 -0.39014903 -81.279274 -77.965233 43.634048 -64.35807 94.491806 -28.564947 177.21175
25000000 -0.42804599 -87.838005 -84.011368 57.008884 -61.573647 50.078091 -28.857025 174.81581
26000000 -0.43798962 -94.283104 -84.946671 19.760191 -60.359367 -19.589882 -29.080938 172.25032
27000000 -0.46391308 -100.62102 -76.667511 174.71143 -63.842918 17.634132 -29.374315 170.94077
28000000 -0.46112946 -106.84617 -77.364372 -80.604691 -70.912331 -90.822594 -29.533211 167.37866
29000000 -0.47331542 -112.98592 -82.497253 -137.9082 -67.138832 -152.66655 -29.971102 166.04561
30000000 -0.48794162 -119.04506 -78.115768 -44.899403 -67.650078 93.535088 -30.012268 162.6044
31000000 -0.48279575 -125.01327 -93.741394 -105.39673 -66.28936 30.514236 -29.950163 160.97849
32000000 -0.48924521 -130.91145 -97.221703 -118.9222 -63.275139 -61.511646 -30.624018 158.96585
33000000 -0.48760045 -136.75119 -80.832199 20.957523 -60.173313 -32.494457 -30.515869 157.84923
34000000 -0.47781864 -142.51657 -85.171974 18.6525 -64.611519 142.21072 -30.834742 154.6626
35000000 -0.47607365 -148.24225 -91.411522 -58.415138 -63.980595 56.165722 -31.171375 151.41475
36000000 -0.46155927 -153.9006 -74.46431 164.68269 -69.937119 49.302406 -31.305676 149.12303
37000000 -0.45007199 -159.5195 -82.719162 161.1828 -62.558872 -78.287529 -31.491482 147.39522
38000000 -0.44634843 -165.09438 -88.355629 22.985821 -63.69252 19.097988 -31.489183 146.33502
39000000 -0.419669 -170.63597 -75.999779 167.99098 -66.963608 -110.26395 -31.840792 143.30647
40000000 -0.40122628 -176.13472 -80.614754 -134.05295 -61.904324 -43.440098 -32.08345 141.21245
41000000 -0.39302891 178.40408 -82.208054 -37.726646 -64.470749 -32.778145 -32.265278 138.76732
42000000 -0.38648468 172.96588 -85.607605 -62.783188 -65.807129 79.706223 -32.397179 138.12288
43000000 -0.36134571 167.55397 -82.989403 -26.259706 -65.283607 53.411259 -32.837799 135.52133
44000000 -0.34322974 162.17346 -81.692917 -178.59932 -66.179543 -15.609123 -33.017067 131.85628
45000000 -0.33786264 156.82179 -82.107872 -129.81992 -79.800949 -82.894409 -33.191559 131.2973
46000000 -0.32407019 151.47826 -85.378296 -116.41167 -82.288246 169.88947 -33.300426 130.08406
47000000 -0.30522636 146.17867 -85.773163 52.033634 -72.731209 55.907799 -33.457287 129.01808
48000000 -0.29376221 140.89383 -89.258301 -165.40176 -72.213905 149.86938 -33.727272 125.74481
49000000 -0.29286903 135.62453 -81.961937 67.579895 -64.297333 74.373489 -34.109272 124.35915
50000000 -0.28035957 130.38075 -84.028069 -94.83992 -69.424873 140.63383 -33.945526 123.06802
51000000 -0.2702212 125.15591 -85.747787 93.158348 -62.480442 89.10157 -34.157345 121.51437
52000000 -0.26635244 119.95798 -90.673492 172.43971 -84.99176 149.05354 -34.529057 119.96841
53000000 -0.27286106 114.78656 -83.385704 97.873009 -66.303146 61.324512 -34.532177 118.27758
54000000 -0.2527827 109.65056 -85.511208 174.56238 -69.527542 153.66093 -34.756115 116.67089
55000000 -0.24622025 104.51877 -84.986092 -133.41827 -74.203842 107.25787 -35.022133 115.06372
56000000 -0.24929105 99.403961 -80.644669 -114.20567 -77.428032 -124.23203 -35.128441 113.8718
57000000 -0.25896958 94.312752 -82.119347 -112.74064 -64.005684 169.55965 -35.596901 113.41801
58000000 -0.27432197 89.248734 -82.617737 -125.70354 -67.799591 65.211891 -35.152721 111.44144
59000000 -0.28400648 84.200226 -84.741386 -136.22269 -67.988625 7.7108741 -35.665802 111.24683
60000000 -0.28645787 79.182152 -84.578857 129.97057 -66.647087 142.92554 -35.666698 108.72869
61000000 -0.29668805 74.183197 -77.921738 -116.96035 -73.424332 -46.10252 -35.947231 109.57185
62000000 -0.31020823 69.218781 -87.40699 47.027538 -63.839188 -129.46085 -35.929939 108.52445
63000000 -0.33094221 64.270187 -80.395485 -78.815689 -68.452805 -152.19685 -36.081921 104.74079
64000000 -0.35785595 59.342834 -88.894173 -139.88988 -67.774895 -65.020775 -35.967007 105.54947
65000000 -0.36682501 54.438744 -83.198357 96.753677 -70.409729 152.99872 -36.206482 105.98055
66000000 -0.38000029 49.567333 -90.840683 -107.58595 -68.343597 41.43782 -36.421028 102.73483
67000000 -0.39756477 44.717957 -102.56738 -75.728836 -79.244499 -23.684422 -36.499352 103.20135
68000000 -0.42098075 39.884624 -80.341965 -30.354868 -64.651527 -42.632511 -36.867287 99.924828
69000000 -0.44699195 35.077427 -80.125267 45.101124 -70.930222 -60.587677 -36.61554 99.141281
70000000 -0.46841866 30.29038 -92.2407 -35.846954 -79.162544 -13.712729 -36.433018 98.334297
71000000 -0.48267627 25.525137 -98.109375 -12.947584 -72.424896 -47.0182 -36.724613 98.42215
72000000 -0.49984187 20.780724 -100.26197 -14.445369 -89.455551 67.573578 -36.402832 98.307022
73000000 -0.52022117 16.051424 -102.93877 -86.505302 -78.865089 -16.813417 -36.827152 97.187378
74000000 -0.5431509 11.344465 -102.50071 108.29243 -73.017822 82.284004 -36.650364 95.528427
75000000 -0.57072181 6.6484637 -84.111282 -145.50725 -82.065163 -178.97667 -36.82489 93.869072
76000000 -0.57886165 1.9716011 -85.078445 64.449936 -77.352806 -83.033005 -36.538036 93.895042
77000000 -0.59037071 -2.6882873 -86.087761 -37.533909 -68.989807 151.02902 -36.603241 93.379646
78000000 -0.60395718 -7.3351955 -92.021225 153.59653 -90.258034 -108.44708 -36.436356 90.349495
79000000 -0.62007904 -11.97459 -84.901711 99.902412 -74.288879 129.3483 -36.670029 89.66819
80000000 -0.637227 -16.59247 -83.140472 -3.2989109 -80.137131 -3.5439546 -36.62669 90.274422
81000000 -0.65595102 -21.209576 -86.118866 -99.868477 -65.816406 -63.224072 -36.725327 88.515076
82000000 -0.67701364 -25.820942 -87.424377 -110.16497 -68.660362 11.143085 -36.562164 84.691483
83000000 -0.69047093 -30.412148 -82.763855 36.842903 -75.640221 125.91021 -36.469147 84.026154
84000000 -0.69627738 -35.003502 -88.513847 -123.96825 -75.672501 156.17882 -36.535988 83.895874
85000000 -0.702654 -39.588764 -93.5252 -107.07413 -72.425995 -144.33461 -36.364079 81.281235
86000000 -0.71186668 -44.170624 -86.514526 94.702522 -72.578957 -13.715976 -36.313881 80.274017
87000000 -0.72128445 -48.74585 -82.653336 79.39534 -83.664612 84.057823 -36.348331 78.46463
88000000 -0.73338401 -53.317493 -85.925385 -89.273476 -79.039818 -152.505 -36.220654 76.108871
89000000 -0.74598509 -57.891945 -89.604561 179.29391 -72.47541 -30.015451 -36.073261 76.707336
90000000 -0.76122886 -62.454868 -96.236893 -138.81549 -75.404984 58.838535 -35.956165 73.323669
91000000 -0.76245141 -67.023232 -89.755219 107.75721 -69.157677 -38.869675 -36.119572 71.892143
92000000 -0.76491857 -71.59343 -101.87738 13.388667 -71.996475 -29.11289 -35.900108 71.400291
93000000 -0.76923406 -76.161247 -86.927658 5.3184266 -72.465195 46.279854 -35.812878 68.374573
94000000 -0.77524996 -80.726334 -90.0327 -82.993507 -73.737495 173.82689 -35.74852 66.519028
95000000 -0.78262389 -85.293442 -95.286598 99.998131 -73.139618 -36.648468 -35.839813 65.18335
96000000 -0.79281974 -89.859161 -87.405983 -112.90185 -68.232391 166.45357 -35.673309 63.246902
97000000 -0.80492985 -94.429596 -91.375717 -16.643589 -76.029381 -68.063889 -35.744278 61.375618
98000000 -0.81318307 -99.000313 -81.30127 13.999255 -76.393944 -162.54265 -35.610485 59.400585
99000000 -0.81588292 -103.5673 -92.355148 45.708698 -73.096695 -100.95305 -35.57394 57.531544
100000000 -0.82099611 -108.13405 -90.493118 84.08667 -79.720345 169.30023 -35.482479 55.239201
101000000 -0.82857627 -112.70225 -84.447937 -42.565495 -74.361267 -165.67184 -35.487106 52.238815
102000000 -0.83796269 -117.27054 -93.165306 31.021534 -82.550224 -51.327351 -35.326401 51.929138
103000000 -0.85022151 -121.83344 -91.866829 -144.35434 -81.903793 -155.84393 -35.257217 49.145248
104000000 -0.86428946 -126.39552 -88.398232 10.006592 -77.927879 -144.02834 -35.319958 47.951672
105000000 -0.88180596 -130.95711 -91.322868 45.9683 -72.81414 -48.782833 -35.187477 45.512199
106000000 -0.88704598 -135.50111 -89.187904 -70.3218 -70.726685 -129.51671 -35.293907 43.677265
107000000 -0.8948608 -140.05894 -88.911064 101.87934 -69.095154 -19.014761 -35.193981 40.925877
108000000 -0.90591389 -144.60577 -92.054024 122.91541 -76.125191 -14.655112 -35.046589 39.388878
109000000 -0.91883773 -149.15259 -91.331726 -71.768181 -81.01741 63.026672 -35.052345 36.837238
110000000 -0.93267381 -153.68985 -84.537674 -88.859047 -74.069763 164.42274 -34.876926 34.495403
111000000 -0.9498651 -158.22148 -88.82991 -86.17115 -86.638588 -156.47234 -35.14534 33.128811
112000000 -0.96911108 -162.74835 -87.320313 -18.108255 -83.795433 -149.11694 -35.055458 29.887224
113000000 -0.99018383 -167.26353 -94.258461 -155.17181 -72.282745 8.643261 -35.169777 28.528822
114000000 -1.0124236 -171.7738 -98.247589 -70.773659 -77.307358 -153.66071 -34.988274 25.655895
115000000 -1.0367321 -176.27638 -95.798714 68.317352 -70.593758 31.100061 -35.015972 23.523115
116000000 -1.0535852 179.23544 -102.0324 -120.81564 -69.578049 -97.957451 -35.03817 21.717403
117000000 -1.0687654 174.75102 -86.190361 104.25567 -71.462021 -19.009327 -35.097878 19.414351
118000000 -1.0847996 170.2766 -85.467621 -104.15147 -82.296707 88.951912 -35.022099 17.165096
119000000 -1.1027095 165.81389 -84.942154 -84.050308 -69.229004 -86.993484 -35.097576 14.339437
120000000 -1.1214432 161.36041 -88.82782 -13.451132 -69.072914 -110.00768 -34.960655 13.426065
121000000 -1.1414931 156.91577 -86.88028 -87.064293 -70.895966 -79.11097 -35.091705 9.7189941
122000000 -1.1623348 152.47942 -83.315002 -77.171883 -71.243301 32.72332 -35.078777 7.463398
123000000 -1.1839176 148.0569 -84.964828 -168.69731 -81.279709 59.321724 -35.13905 6.1897821
124000000 -1.2057694 143.64027 -88.757629 -151.67577 -70.762886 -155.62767 -35.205715 3.7395298
125000000 -1.2285403 139.23694 -96.040649 -141.2041 -71.171471 -157.92621 -35.066151 0.97028995
126000000 -1.246426 134.84099 -83.339806 -115.90307 -67.576172 82.094704 -35.184406 -1.1402034
127000000 -1.2587371 130.44983 -82.490623 -137.03764 -71.528664 158.65279 -35.280453 -3.4834051
128000000 -1.272074 126.07293 -81.489334 -104.85575 -69.006332 115.81314 -35.119877 -4.8249407
129000000 -1.2853949 121.70074 -77.669785 -136.05884 -68.514366 6.9348865 -35.188374 -8.5296011
130000000 -1.29838 117.33555 -76.583832 -158.41962 -69.249329 27.939148 -35.33976 -10.603887
131000000 -1.3115002 112.97076 -84.228218 -151.97374 -72.595673 -100.26864 -35.276684 -12.97321
132000000 -1.3240714 108.62115 -79.923836 177.15739 -76.978928 -51.49202 -35.280308 -15.072793
133000000 -1.3369153 104.27078 -78.645088 -165.20398 -93.486107 139.30841 -35.465664 -17.106785
134000000 -1.3492196 99.928406 -76.816254 175.26634 -80.836632 143.44533 -35.558815 -18.650372
135000000 -1.3619585 95.595032 -77.405075 150.63667 -72.754227 21.947517 -35.681885 -20.822737
136000000 -1.3718181 91.256004 -77.211342 167.188 -72.02903 -134.63899 -35.781189 -22.852133
137000000 -1.3741714 86.920753 -73.788048 161.6962 -71.989159 -158.461 -35.832924 -25.867826
138000000 -1.3763547 82.588173 -73.887505 144.68123 -78.075623 70.302551 -35.813332 -27.573599
139000000 -1.3787293 78.259636 -74.418404 139.62956 -74.961052 -27.703453 -35.788071 -29.893112
140000000 -1.3807559 73.925896 -74.332916 136.80476 -72.787926 -81.291756 -35.933517 -31.695715
141000000 -1.382225 69.600296 -74.392853 133.01018 -73.813911 106.97273 -35.994244 -33.748665
142000000 -1.3840553 65.263405 -72.99398 120.44861 -73.623856 174.06979 -36.113411 -36.445763
143000000 -1.3854305 60.930088 -71.53006 115.7786 -82.874512 128.02206 -36.168503 -38.178116
144000000 -1.3867847 56.589245 -72.054893 105.33789 -77.72406 54.710155 -36.303997 -39.441956
145000000 -1.3878489 52.250801 -71.861389 82.783173 -76.724602 8.9771595 -36.397999 -40.273258
146000000 -1.3897285 47.908165 -69.807373 87.07811 -69.423798 -136.43718 -36.575588 -43.987595
147000000 -1.3853538 43.575832 -71.807426 82.41407 -73.614761 93.011345 -36.42543 -45.971096
148000000 -1.3793032 39.226753 -68.74369 78.227112 -70.508255 -156.18091 -36.703415 -48.123798
149000000 -1.3755541 34.873981 -69.31189 65.322647 -79.710564 -73.111137 -36.713814 -50.753643
150000000 -1.3705924 30.507156 -67.672333 54.958481 -69.916115 144.67175 -37.097672 -51.080311
151000000 -1.3684524 26.149662 -67.520813 53.10659 -72.628906 21.364117 -37.327759 -53.848476
152000000 -1.365625 21.781336 -65.86824 38.467274 -75.576424 -142.06635 -37.189449 -53.345501
153000000 -1.363428 17.402578 -66.643127 37.245258 -72.849815 -27.990265 -37.262615 -56.953114
154000000 -1.3607016 13.020126 -67.639664 24.630827 -64.927574 87.892433 -37.489162 -58.865391
155000000 -1.3547873 8.6433792 -66.482414 16.341915 -79.879082 -129.63945 -37.455223 -58.660614
156000000 -1.3519495 4.251616 -65.463501 13.48866 -65.632042 -158.11621 -37.788605 -61.598446
157000000 -1.3489264 -0.13785674 -65.143898 6.9650464 -85.436783 26.734617 -37.722488 -63.341705
158000000 -1.3487672 -4.5372496 -65.045341 -3.3727124 -76.0494 -16.970327 -37.715359 -64.003479
159000000 -1.3488781 -8.9370012 -64.288055 -7.1618309 -68.519211 -10.004754 -38.004189 -65.571625
160000000 -1.3512207 -13.341667 -64.367233 -8.5854282 -71.08432 94.993484 -38.095367 -66.243706
161000000 -1.3536824 -17.745529 -64.055443 -19.302784 -71.572174 171.46468 -38.140869 -67.033165
162000000 -1.3537514 -22.160723 -63.800434 -26.978384 -72.737473 -148.44508 -38.323643 -69.6996
163000000 -1.3571379 -26.567274 -63.000553 -32.814468 -71.301292 147.08626 -38.473152 -70.973183
164000000 -1.3614116 -30.978365 -63.197727 -41.681389 -75.394653 121.12595 -38.427235 -72.128899
165000000 -1.3671514 -35.390133 -62.256947 -49.634697 -68.551491 -176.10329 -38.545078 -73.588493
166000000 -1.3761138 -39.799713 -62.621269 -51.417534 -70.835701 45.594318 -38.853493 -75.894745
167000000 -1.3859999 -44.212219 -61.415676 -59.995132 -73.219063 -83.415222 -38.839355 -72.853073
168000000 -1.3991528 -48.617229 -62.522701 -64.0812 -77.309631 -15.610309 -38.922375 -76.169113
169000000 -1.4087771 -53.019478 -61.35162 -72.551582 -68.573784 -52.71907 -39.134819 -77.34053
170000000 -1.4214673 -57.427296 -61.073708 -74.109039 -70.464737 146.46622 -38.933655 -77.378937
171000000 -1.433808 -61.814968 -60.614235 -82.032059 -70.667358 135.64049 -38.855591 -77.872917
172000000 -1.4496319 -66.211182 -60.495605 -88.593399 -73.609192 -36.605099 -38.927197 -79.598808
173000000 -1.4664893 -70.597893 -59.771004 -93.313911 -72.57386 174.26891 -39.063171 -80.949097
174000000 -1.4860711 -74.978546 -60.13562 -99.611458 -70.248268 109.97954 -39.153465 -79.613632
175000000 -1.5064228 -79.350136 -59.924969 -106.67326 -83.597427 110.69119 -38.987061 -81.848091
176000000 -1.5258541 -83.72065 -59.557461 -110.85314 -79.0354 86.447937 -38.981766 -82.045715
177000000 -1.5458287 -88.084503 -59.189148 -117.16068 -72.324532 -152.50955 -39.075104 -82.408539
178000000 -1.5663961 -92.436806 -58.92976 -123.77147 -68.933678 52.08807 -39.224358 -81.842819
179000000 -1.5889901 -96.784134 -58.971897 -129.82874 -76.147346 -149.65617 -39.068535 -84.609184
180000000 -1.6118002 -101.12119 -58.280167 -134.57982 -70.24456 144.44078 -39.099701 -84.665993
181000000 -1.6359484 -105.44924 -57.965565 -144.03899 -77.370468 24.075766 -38.937031 -85.324158
182000000 -1.6614486 -109.77614 -57.601555 -146.93613 -76.755127 -122.02937 -38.820114 -85.546654
183000000 -1.6864748 -114.09004 -57.403557 -151.78499 -69.933601 120.15096 -38.659355 -88.527184
184000000 -1.7100616 -118.39983 -57.062588 -156.48639 -80.378616 -74.659866 -38.480972 -88.601784
185000000 -1.733463 -122.70464 -56.938553 -164.09897 -71.509109 159.31709 -38.606396 -92.367432
186000000 -1.7580587 -127.00401 -56.198559 -168.84846 -70.460884 -115.82334 -38.581589 -90.618729
187000000 -1.7826781 -131.29103 -56.213902 -174.53563 -71.206543 -147.14314 -38.415028 -91.284035
188000000 -1.8083187 -135.5807 -55.699219 179.99248 -69.503471 -21.949677 -38.212055 -92.938263
189000000 -1.8339726 -139.85663 -55.581047 172.91403 -66.613846 152.33807 -38.195339 -96.259392
190000000 -1.8600518 -144.13091 -55.365845 169.85245 -71.132004 46.897614 -37.809261 -96.702507
191000000 -1.8835697 -148.39726 -55.162209 163.81447 -79.996811 96.478195 -37.803425 -97.034805
192000000 -1.9074494 -152.6674 -54.673157 158.07825 -86.056633 62.152367 -37.747162 -97.757179
193000000 -1.93109 -156.93118 -54.526814 152.30914 -71.843086 160.31732 -37.505478 -98.543434
194000000 -1.9548242 -161.18979 -54.067154 147.49405 -77.541603 -16.238688 -37.391518 -101.20934
195000000 -1.9783729 -165.44934 -53.704224 141.64409 -72.601135 -141.79132 -37.092133 -104.16403
196000000 -2.0020072 -169.71114 -53.476231 134.93925 -76.899551 -1.5762119 -37.422054 -105.87653
197000000 -2.0262172 -173.9679 -53.065758 130.66846 -75.481865 -179.81448 -36.984066 -106.27044
198000000 -2.0491543 -178.22653 -52.764675 126.14384 -81.625023 -121.62353 -37.084133 -107.23519
199000000 -2.0705144 177.51491 -52.612713 121.16924 -72.001816 -125.57967 -36.955517 -110.13936
200000000 -2.0914934 173.25484 -52.089676 114.62277 -66.982956 22.840904 -36.671776 -111.91792
201000000 -2.1132832 168.9814 -51.781517 109.13734 -71.503952 92.477745 -36.515312 -113.45341
202000000 -2.1354654 164.71419 -51.234276 105.70979 -78.417068 4.5215702 -36.408844 -114.41817
203000000 -2.1570704 160.44211 -51.003708 98.406921 -72.400284 -150.97849 -36.161568 -114.89425
204000000 -2.1806443 156.16533 -50.789478 94.324799 -77.034752 -35.486668 -36.103279 -119.48251
205000000 -2.2036326 151.87825 -50.479012 87.623665 -73.292099 113.27836 -36.043236 -120.93272
206000000 -2.2254303 147.60402 -50.169407 83.054802 -86.428223 16.743605 -35.888771 -123.64316
207000000 -2.2481015 143.30568 -49.630527 77.42379 -71.944611 44.750244 -35.919605 -125.39552
208000000 -2.2707484 139.0103 -49.587032 72.252808 -71.384056 -125.37594 -35.774166 -127.44793
209000000 -2.2946072 134.70787 -49.225491 66.713982 -66.816383 -149.91277 -35.626839 -128.86586
210000000 -2.3181183 130.39093 -48.782322 61.827309 -71.901077 133.56369 -35.385227 -131.66701
211000000 -2.3434193 126.0675 -48.402473 55.927605 -64.040329 154.09596 -35.414085 -133.09808
212000000 -2.3682239 121.73461 -48.168171 50.417221 -69.072891 23.633585 -35.314842 -136.32857
213000000 -2.3940508 117.40694 -47.77676 44.94342 -75.99144 -67.898201 -35.199978 -137.79904
214000000 -2.4219487 113.06041 -47.405087 40.832504 -77.501328 93.039246 -35.005817 -140.00365
215000000 -2.4496183 108.70807 -47.119923 34.75861 -69.364609 -0.53483957 -34.811657 -142.6377
216000000 -2.478091 104.35067 -46.774475 29.618507 -75.477104 75.466522 -34.774151 -145.74071
