! Created Wed Feb 11 23:24:43 2026
# hz S db R 50
! 2 Port Network Data from SP1.SP block
! freq  dbS11  angS11  dbS21  angS21  dbS12  angS12  dbS22  angS22  
!     
200000000     -0.0473104501        -23.9335737        -27.8822929        -103.208048        -93.5954216         167.786114        -0.14136065         144.334403
210000000     -0.0459774913        -25.1474447         -26.948926        -115.028888        -92.2386274         156.015714       -0.150466777         142.144124
220000000     -0.0461430445        -26.3725071        -25.7473439        -123.334092        -90.6333579         147.760902       -0.160698478          139.86866
230000000     -0.0472773987        -27.6049068        -24.3243254        -129.840824        -88.8246378         141.304521       -0.172398933         137.496335
240000000     -0.0490663944         -28.844284        -22.7372695        -135.374559        -86.8683368         135.821103       -0.185989462          135.01288
250000000     -0.0513530335        -30.0913731        -21.0279873         -140.36718        -84.8049234         130.878768       -0.202035144         132.400822
260000000     -0.0540666664        -31.3473641        -19.2238064        -145.069288        -82.6605412         126.226921       -0.221317059         129.638568
270000000     -0.0571856251        -32.6137569        -17.3416079        -149.643374         -80.451021         121.703073       -0.244936507         126.699114
280000000      -0.060719721        -33.8923679        -15.3909896        -154.208376        -78.1850251          117.18829       -0.274476703         123.548194
290000000     -0.0647034353        -35.1854053        -13.3763716        -158.863566        -75.8661367         112.583302       -0.312262124         120.141622
300000000     -0.0691962691         -36.495598        -11.2983662        -163.703575        -73.4942161         107.793481       -0.361786408         116.421432
310000000     -0.0742904836        -37.8263945        -9.15471371        -168.830113        -71.0663241         102.717126       -0.428439302         112.310155
320000000     -0.0801320597        -39.1822586        -6.94111666        -174.363505        -68.5775515         97.2339069       -0.520783362         107.702244
330000000     -0.0869655962        -40.5691142        -4.65221285         179.543412        -66.0219794         91.1909889       -0.652871854         102.451115
340000000     -0.0952337906         -41.994981        -2.28334437         172.687145        -63.3944432         84.3848812       -0.848615876            96.3496
350000000       -0.10579324        -43.4707559        0.165842807         164.789841         -60.694126         76.5377297        -1.15031345         89.1013041
360000000      -0.120367849        -45.0106666         2.68386151          155.47332        -57.9320915         67.2713583        -1.63586213         80.2819987
370000000      -0.142397763        -46.6304598         5.23244512         144.250671        -55.1462174         56.0988568        -2.45438822         69.2979616
380000000      -0.178124059        -48.3380004         7.72161869         130.600527        -52.4261212         42.4988586        -3.90179735         55.3589546
390000000      -0.236105651        -50.1097631         9.98589184         114.257437        -49.9369633         26.2059135        -6.59706655         37.3640737
400000000      -0.321082208        -51.8710736         11.8114854         95.7583462        -47.8922181         7.75696842        -12.1047234          11.717616
410000000      -0.425326564        -53.5450626         13.0662995         76.6906024         -46.423703        -11.2606286        -22.9763681        -85.4008838
420000000      -0.535072722        -55.1465212         13.8211735         58.8560932        -45.4603171        -29.0449887          -12.52104        -169.449717
430000000      -0.647018868        -56.7617941         14.2824584         43.1503453        -44.7954662        -44.7005843        -7.92669779         168.820782
440000000      -0.769814924        -58.4584719         14.6406671         29.4819671        -44.2384111        -58.3188066        -5.65954359         154.276066
450000000      -0.916683708        -60.2572415         15.0087453         17.3211255        -43.6759948        -70.4294877        -4.37046602         142.768576
460000000       -1.10215752        -62.1432194         15.4355639          6.0913879         -43.059149        -81.6090598        -3.58782988         132.977342
470000000       -1.34246989        -64.0690876         15.9319501        -4.69915863        -42.3768619         -92.349435        -3.10893927         124.202297
480000000        -1.6562565        -65.9393613         16.4870549        -15.4459574        -41.6398097        -103.046056        -2.84178246         116.019033
490000000       -2.06315132        -67.5761816           17.07527        -26.4605844        -40.8734386        -114.010498        -2.74858001         108.178469
500000000       -2.57701282        -68.6711885         17.6581553        -37.9697628        -40.1160361        -125.469485        -2.82130038         100.579266
510000000       -3.18851821        -68.7516065         18.1858396        -50.0896761        -39.4173295        -137.539201        -3.06682234         93.2780199
520000000       -3.83424309        -67.2549889         18.6023415        -62.7830804        -38.8331657          -150.1824        -3.49111867         86.5087749
530000000       -4.37144936        -63.8748411         18.8572855        -75.8311347        -38.4137932         -163.18024        -4.07839982         80.6599876
540000000       -4.62159574        -59.1199498         18.9215569        -88.8638189        -38.1882066          -176.1627        -4.77105389         76.1435856
550000000       -4.50656587        -54.3468314          18.797628        -101.463599        -38.1538198         171.287754         -5.4684465         73.1536053
560000000       -4.11938662        -50.8028242         18.5165799        -113.291416        -38.2794446         159.510182        -6.05963445         71.4608043
570000000       -3.62227408        -48.8664909         18.1242467        -124.160235        -38.5191451         148.691619        -6.47427581         70.4586137
580000000       -3.13284806        -48.2660675         17.6664193        -134.031751        -38.8270341         138.870369        -6.70823081         69.4647519
590000000        -2.7036113        -48.5658509          17.180123        -142.968472        -39.1659949         129.983926        -6.80480193         68.0056924
600000000       -2.34651463        -49.4066495         16.6913467        -151.081789        -39.5099517         121.920901        -6.81909806         65.8840216
610000000       -2.05597593        -50.5477913         16.2164128        -158.495634        -39.8424985         114.557356        -6.79555675         63.0911894
620000000       -1.82121119        -51.8420174         15.7644797         -165.32656        -40.1543996         107.776745        -6.76258072          59.703018
630000000       -1.63131335        -53.2031783         15.3398689        -171.676055        -40.4412586         101.477577        -6.73552861         55.8140026
640000000       -1.47693415        -54.5823468         14.9438428        -177.628712         -40.701742          95.575262        -6.72120722         51.5097647
650000000       -1.35056222        -55.9525355         14.5758303         176.746607        -40.9363532         90.0009372        -6.72138706         46.8596755
660000000       -1.24632349        -57.2995006         14.2342286         171.394585          -41.14663         84.6992852        -6.73505029         41.9178981
670000000       -1.15966892        -58.6163373         13.9169112         166.271123        -41.3346372         79.6262083        -6.75970671         36.7269435
680000000       -1.08707875        -59.9003295          13.621542         161.341236        -41.5026516         74.7467205        -6.79213832         31.3213836
690000000       -1.02581917        -61.1511165         13.3457662         156.577265        -41.6529717         70.0331659        -6.82882456         25.7309578
700000000      -0.973753412        -62.3696262         13.0873229         151.957422        -41.7878043         65.4637544        -6.86620038         19.9829309
710000000      -0.929201331        -63.5574614         12.8440971          147.46462        -41.9092123         61.0213975        -6.90083325         14.1037649
720000000      -0.890824697        -64.7165171         12.6141893         143.085465        -42.0190459         56.6927042        -6.92955601         8.12012843
730000000      -0.857555305        -65.8487997         12.3958933         138.809556        -42.1189638         52.4672739        -6.94958461         2.05945277
740000000      -0.828532531        -66.9563014         12.1877105          134.62884        -42.2104189         48.3370546        -6.95861469        -4.05000488
750000000      -0.803058443        -68.0409376          11.988345         130.537113        -42.2946636          44.295841        -6.95489696        -10.1794545
760000000      -0.780563798        -69.1045142         11.7966929         126.529605        -42.3727595          40.338864        -6.93728401        -16.3001361
770000000      -0.760582082        -70.1487142         11.6118294         122.602646        -42.4455911         36.4624548        -6.90524258         -22.384051
780000000      -0.742729484        -71.1750932         11.4329939         118.753395        -42.5138802         32.6637724        -6.85882913        -28.4047467
790000000      -0.726689281        -72.1850812         11.2595739         114.979615         -42.578202         28.9405797        -6.79863132        -34.3380526
800000000      -0.712199535        -73.1799881         11.0910886         111.279493        -42.6390013         25.2910639        -6.72568221         -40.162683
810000000      -0.699042194         -74.160998         10.9271949         107.651537        -42.6965832         21.7137398        -6.64133999        -45.8603687
820000000      -0.687038454         -75.129212         10.7676054         104.094344        -42.7512052         18.2071973        -6.54723094        -51.4169109
830000000      -0.676039094        -76.0856191         10.6121403         100.606626        -42.8030152         14.7701514        -6.44509141        -56.8213305
840000000      -0.665920288        -77.0311163         10.4606906         97.1871148        -42.8520911         11.4013322        -6.33669222         -62.065988
850000000      -0.656579265        -77.9665158         10.3132059          93.834508        -42.8984535         8.09943845        -6.22376191        -67.1462916
860000000      -0.647930706        -78.8925527         10.1696823          90.547441        -42.9420775         4.86310566        -6.10792879        -72.0603258
870000000      -0.639903756        -79.8098909         10.0301524          87.324466        -42.9829027         1.69088645        -5.99068144        -76.8084456
880000000       -0.63243953        -80.7191309         9.89467638         84.1640436        -43.0208422        -1.41875833        -5.87334543        -81.3928652
890000000      -0.625489046        -81.6208151         9.76333373         81.0645395        -43.0557904        -4.46746255        -5.75707367         -85.817272
900000000      -0.619011491        -82.5154343         9.63621715         78.0242285        -43.0876296        -7.45695129        -5.64284714        -90.0864761
910000000      -0.612974624        -83.4034364         9.51341698         75.0412722        -43.1162489        -10.3890669        -5.53148744        -94.2060934
920000000      -0.607348125        -84.2852216         9.39504638         72.1138147         -43.141508        -13.2656608        -5.42365593        -98.1823287
930000000      -0.602108103        -85.1611571           9.281208         69.2399114        -43.1632816        -16.0886771        -5.31988305        -102.021726
940000000      -0.597234462        -86.0315788         9.17200111         66.4175679        -43.1814486          -18.86011         -5.2205804        -105.731014
950000000      -0.592710257        -86.8967943         9.06751944         63.6447526        -43.1958938        -21.5819908        -5.12605729        -109.316973
960000000      -0.588521168         -87.757087         8.96784961          60.919409        -43.2065101        -24.2563756        -5.03653662        -112.786336
970000000      -0.584655073        -88.6127196          8.8730701         58.2394659        -43.2131991        -26.8853355        -4.95216949        -116.145713
980000000      -0.581101706        -89.4639362         8.78325051         55.6028492        -43.2158719        -29.4709442         -4.8730483        -119.401537
990000000      -0.577852393        -90.3109657         8.69845122         53.0074898        -43.2144493        -32.0152703        -4.79921835         -122.56003
1e+09      -0.574899823        -91.1540235         8.61872329         50.4513327        -43.2088621        -34.5203688        -4.73068792        -125.627174
1.01e+09      -0.572233808        -91.9933251         8.54413205         47.9323659        -43.1990265        -36.9882579        -4.66744476        -128.608831
1.02e+09      -0.569853411        -92.8290543         8.47468735         45.4485606        -43.1849163        -39.4209595        -4.60943979        -131.510342
1.03e+09      -0.567754558         -93.661398         8.41041333         42.9979399        -43.1664909        -41.8204502        -4.55661681        -134.336927
1.04e+09      -0.565934075        -94.4905362         8.35132585         40.5785622        -43.1437181        -44.1886712        -4.50890975        -137.093551
1.05e+09      -0.564389622        -95.3166433         8.29743296         38.1885237        -43.1165744         -46.527526        -4.46624694        -139.784934
1.06e+09       -0.56311966        -96.1398897          8.2487354         35.8259614        -43.0850437        -48.8388774        -4.42855454        -142.415556
1.07e+09      -0.562123421        -96.9604417         8.20522708         33.4890537        -43.0491174        -51.1245464        -4.39575943        -144.989676
1.08e+09      -0.561400889        -97.7784634         8.16689549         31.1760224        -43.0087935        -53.3863114         -4.3677915        -147.511334
1.09e+09      -0.560952796        -98.5941163          8.1337223         28.8851317        -42.9640765        -55.6259075        -4.34458557         -149.98437
1.1e+09      -0.560780619        -99.4075607         8.10568367         26.6146896        -42.9149766        -57.8450266        -4.32608286        -152.412432
1.11e+09      -0.560888542        -100.218954         8.08273883         24.3630062        -42.8615212        -60.0453567        -4.31223539        -154.798967
1.12e+09      -0.561277638        -101.028456         8.06486592         22.1285125        -42.8037194        -62.2284681        -4.30299753        -157.147298
1.13e+09      -0.561951672        -101.836225         8.05202706         19.9096425        -42.7415965        -64.3959265        -4.29833632        -159.460572
1.14e+09      -0.562915195        -102.642421         8.04418026         17.7048708        -42.6751824        -66.5492567        -4.29822891        -161.741789
1.15e+09      -0.564173572        -103.447202         8.04127983          15.512711        -42.6045109        -68.6899453        -4.30266319        -163.993817
1.16e+09      -0.565733002        -104.250727         8.04327645         13.3317147        -42.5296197        -70.8194398        -4.31163817        -166.219399
1.17e+09      -0.567600545        -105.053158         8.05011755           11.16047        -42.4505501        -72.9391523        -4.32516453        -168.421161
1.18e+09       -0.56978415        -105.854657         8.06174731         8.99760041         -42.367347        -75.0504586        -4.34326488        -170.601626
1.19e+09      -0.572292687        -106.655385         8.07810689         6.84176351        -42.2800585        -77.1547011        -4.36597422        -172.763216
1.2e+09      -0.575135975        -107.455507         8.09913449         4.69164978        -42.1887359        -79.2531888        -4.39334022        -174.908267
1.21e+09      -0.578326768        -108.255174         8.12474768         2.54598383        -42.0934515        -81.3471958        -4.42541909         -177.03902
1.22e+09      -0.581874958        -109.054567         8.15489646        0.403516951        -41.9942454        -83.4379716        -4.46228954        -179.157662
1.23e+09      -0.585793443        -109.853854         8.18951057        -1.73696866        -41.8911781        -85.5267337        -4.50403967         178.733697
1.24e+09      -0.590096224        -110.653205         8.22851695        -3.87666165        -41.7843134        -87.6146703        -4.55077191         176.633011
1.25e+09      -0.594798442        -111.452792         8.27183975        -6.01672275        -41.6737178         -89.702942        -4.60260349         174.538287
1.26e+09      -0.599916427        -112.252788         8.31940029        -8.15828514        -41.5594609        -91.7926816        -4.65966701         172.447583
1.27e+09      -0.605467737        -113.053367         8.37111712        -10.3024555        -41.4416156        -93.8849955        -4.72211107         170.359001
1.28e+09        -0.6114712        -113.854706         8.42690582        -12.4503132        -41.3202576        -95.9809626        -4.79010085         168.270682
1.29e+09      -0.617946963        -114.656981         8.48667906        -14.6029111        -41.1954659        -98.0816357        -4.86381894         166.180799
1.3e+09      -0.624916533         -115.46037         8.55034658        -16.7612758        -41.0673226        -100.188041        -4.94346617         164.087553
1.31e+09       -0.63240259        -116.265049         8.61781215        -18.9263879        -40.9359118        -102.301152         -5.0292607         161.989168
1.32e+09      -0.640429697        -117.071202         8.68898214        -21.0992383        -40.8013234        -104.421966        -5.12144423         159.883883
1.33e+09      -0.649023691         -117.87901         8.76375691        -23.2807711        -40.6636494        -106.551427        -5.22027808         157.769951
1.34e+09      -0.658211942        -118.688655         8.84203376        -25.4719023        -40.5229851         -108.69045         -5.3260461         155.645626
1.35e+09      -0.668023378        -119.500318         8.92370672        -27.6735182        -40.3794291        -110.839921         -5.4390561         153.509166
1.36e+09      -0.678488524        -120.314182         9.00866664        -29.8864746        -40.2330835        -113.000697        -5.55964136         151.358817
1.37e+09      -0.689639538        -121.130429         9.09680121        -32.1115951        -40.0840537        -115.173599        -5.68816243          149.19281
1.38e+09      -0.701510232        -121.949241         9.18799498        -34.3496702        -39.9324481         -117.35942        -5.82500907         147.009352
1.39e+09      -0.714136096          -122.7708         9.28212938        -36.6014552        -39.7783788        -119.558912        -5.97060238         144.806615
1.4e+09      -0.727554322        -123.595288         9.37908292        -38.8676692        -39.6219607        -121.772795        -6.12539737         142.582723
1.41e+09      -0.741802559          -124.4229         9.47874094        -41.1489329        -39.4633066          -124.0017        -6.28987137         140.335847
1.42e+09      -0.756922649        -125.253803         9.58096712        -43.4459426        -39.3025422        -126.246311        -6.46456859         138.063875
