!Keysight Technologies,N5242B,US61255121,A.15.50.07
!Date: Wednesday, October 01, 2025 17:13:27
!Correction: S11(Cdelta 2-Port  ) 
!S21(Cdelta 2-Port  ) 
!S12(Cdelta 2-Port  ) 
!S22(Cdelta 2-Port  ) 
!S2P File: Measurements: S11, S21, S12, S22:
# Hz S  dB   R 50
10000000 -0.12226794 -8.9997759 -69.035805 95.669624 -54.150673 67.761055 -57.061283 140.91122
11799000 -0.12486946 -10.68874 -65.03392 32.653568 -54.363811 -143.21852 -46.066387 -177.2556
13598000 -0.13554698 -12.350197 -68.407318 73.979286 -71.856346 -75.240738 -47.95768 174.58426
15397000 -0.13972324 -13.993464 -66.406364 9.2421446 -63.120018 -103.12184 -45.530624 161.83981
17196000 -0.14351127 -15.602367 -79.18959 42.170944 -53.81144 -6.1489358 -49.321342 -172.44592
18995000 -0.14387222 -17.224756 -67.519577 -163.41968 -64.254539 -67.659447 -49.656788 172.85425
20794000 -0.14899802 -18.881523 -74.381401 79.821465 -63.765907 117.35532 -48.754662 179.95866
22593000 -0.14665887 -20.525652 -81.060356 3.6284723 -57.417744 156.56793 -49.738735 163.50587
24392000 -0.14846307 -22.168968 -71.968712 120.81329 -60.863815 118.94196 -49.62677 -177.52098
26191000 -0.14893213 -23.80352 -69.857147 5.58604 -71.976944 103.48402 -48.309437 -179.19942
27990000 -0.15099886 -25.441351 -70.875687 -173.57413 -66.132126 145.04561 -47.810364 171.27036
29789000 -0.14936988 -27.073347 -76.971161 -125.91698 -68.70652 22.581644 -48.71196 168.66745
31588000 -0.15397997 -28.686859 -73.098045 -172.70656 -69.391434 144.07764 -48.515114 162.71368
33387000 -0.15115511 -30.33831 -79.999191 -173.73418 -66.078117 107.77699 -48.121426 171.79213
35186000 -0.15665209 -31.967119 -69.946648 -114.26732 -67.99308 102.93434 -48.642761 158.1638
36985000 -0.15555729 -33.605942 -75.223328 89.765106 -71.150284 -168.74748 -48.804554 171.48264
38784000 -0.15606762 -35.241394 -81.851311 18.623484 -63.368816 119.59372 -48.439484 171.57159
40583000 -0.15682332 -36.873722 -82.929276 -20.466288 -73.093994 56.60614 -48.682816 165.99155
42382000 -0.15770878 -38.498657 -84.856285 -66.847733 -65.131302 149.45982 -49.486778 170.67181
44181000 -0.15801293 -40.131775 -85.206711 -172.48354 -75.581161 24.267462 -48.660194 164.06691
45980000 -0.15825078 -41.762959 -80.88652 -95.746132 -75.294922 83.447632 -49.41885 166.25072
47779000 -0.16045867 -43.400753 -84.135712 -113.09775 -68.129135 -127.05768 -49.073147 162.59102
49578000 -0.16074555 -45.03265 -86.374992 -158.45766 -79.613251 -116.17018 -49.568981 163.20522
51377000 -0.16094218 -46.660507 -76.043228 87.124916 -65.22979 48.37587 -49.640091 165.40239
53176000 -0.15800568 -48.360733 -90.653061 -38.434349 -71.206749 -5.8781028 -49.023045 170.2739
54975000 -0.15896282 -49.99556 -84.114601 -52.753517 -67.825264 176.56943 -48.799164 156.87141
56774000 -0.16039421 -51.62653 -82.224243 -28.679407 -64.538483 -14.396227 -49.575302 153.9446
58573000 -0.16010413 -53.253948 -73.486481 92.502235 -73.957024 -155.4402 -48.29126 159.22195
60372000 -0.1593527 -54.905468 -81.966187 -119.65913 -65.575188 155.30409 -48.368225 158.75235
62171000 -0.16060077 -56.536297 -72.950165 -70.492287 -69.252396 30.614592 -48.771996 157.37677
63970000 -0.15897249 -58.177925 -85.36248 -105.05199 -71.346474 -100.8375 -50.094646 156.96184
65769000 -0.16125542 -59.825142 -75.074371 -130.00208 -80.48777 18.394249 -47.730335 165.38577
67568000 -0.16210283 -61.454964 -90.313026 95.95977 -67.455643 -13.06396 -48.246212 160.92908
69367000 -0.16197331 -63.0966 -75.09903 96.824188 -66.867844 -0.80042505 -49.89798 145.8763
71166000 -0.16418847 -64.741791 -78.35157 176.56168 -67.751915 80.959747 -48.686733 158.58803
72965000 -0.16324174 -66.377228 -84.296288 65.430382 -68.57972 30.907955 -49.427353 153.71477
74764000 -0.1648383 -68.016197 -87.535423 -117.79205 -72.458931 111.16577 -48.733608 151.32144
76563000 -0.16606884 -69.65947 -111.00154 2.0312526 -71.789017 -71.883995 -48.790909 150.78403
78362000 -0.16677462 -71.291672 -80.017578 -8.7845478 -71.066513 176.7415 -48.805004 156.95026
80161000 -0.16852343 -72.935791 -77.104965 -156.97086 -73.009193 103.47823 -49.147396 151.75577
81960000 -0.17066951 -74.588722 -81.010834 -151.66771 -80.788216 109.24071 -49.791397 146.09717
83759000 -0.17076267 -76.232124 -80.384384 -161.77945 -65.3461 162.3437 -48.778885 152.25908
85558000 -0.17439382 -77.87011 -80.54509 105.90195 -73.8517 -110.55894 -48.829117 147.46394
87357000 -0.17443989 -79.518433 -92.3778 136.00838 -73.126488 -173.10085 -49.275307 140.64597
89156000 -0.17775778 -81.145622 -90.184944 -2.6881671 -68.385658 -112.33926 -48.630466 146.94734
90955000 -0.17906563 -82.787773 -79.613724 6.9500461 -72.135437 134.59883 -49.786877 145.75656
92754000 -0.18105797 -84.434502 -84.475632 133.59914 -75.191315 98.219917 -49.152843 146.10266
94553000 -0.18407223 -86.065292 -84.325371 53.177807 -72.52916 69.539948 -48.930115 144.06129
96352000 -0.18725343 -87.708366 -81.132713 -167.41005 -77.142509 154.62129 -48.924488 144.24333
98151000 -0.18832733 -89.346214 -80.211884 -13.766651 -73.210617 120.8372 -48.582157 144.75845
99950000 -0.19135204 -90.983894 -83.021484 -146.16089 -71.248909 -130.33838 -48.881622 144.40599
101749000 -0.19478494 -92.615646 -79.132385 159.99013 -76.995277 -61.424385 -48.465244 142.60628
103548000 -0.19595169 -94.250481 -90.08728 -112.7439 -68.534439 146.55486 -49.190899 145.42738
105347000 -0.19928037 -95.886925 -82.297401 -11.965175 -74.72023 -163.60196 -48.522511 142.80672
107146000 -0.20199732 -97.51268 -94.204247 -118.52884 -75.299248 133.68535 -48.5126 147.64488
108945000 -0.20364562 -99.146515 -77.291817 -6.4746952 -81.967224 131.72044 -48.856499 141.55032
110744000 -0.20640223 -100.77443 -76.49929 47.711395 -68.821762 167.04439 -48.673687 147.47598
112543000 -0.20847777 -102.41083 -88.045631 12.937757 -77.470222 -132.81345 -49.596947 138.701
114342000 -0.21151736 -104.04446 -89.20002 -130.91713 -72.241241 43.966763 -49.218403 141.34369
116141000 -0.21247059 -105.67829 -93.205612 -20.010435 -81.323494 60.868523 -48.046814 142.8259
117940000 -0.21612266 -107.31003 -76.511185 -102.00086 -69.669479 -21.017838 -48.501774 135.52856
119739000 -0.2176152 -108.94569 -98.536682 12.446461 -79.30349 -74.780632 -49.062157 140.13652
121538000 -0.22068572 -110.57906 -86.858498 121.44837 -70.046028 -102.86279 -49.134121 144.59526
123337000 -0.22174285 -112.21006 -89.261215 -98.878433 -81.099876 -89.141617 -49.520443 143.7506
125136000 -0.22335206 -113.84248 -81.342461 -60.377201 -71.007507 -43.315884 -48.392551 142.05814
126935000 -0.22516279 -115.47278 -93.159019 -98.170532 -77.27536 -123.09196 -49.008736 142.34059
128734000 -0.22890849 -117.09792 -76.744331 -67.914429 -72.217911 -142.23489 -49.158592 137.15289
130533000 -0.2294731 -118.74101 -87.359718 -96.648209 -72.238365 118.90852 -48.880989 137.53525
132332000 -0.23353037 -120.37369 -85.514992 -19.454769 -82.823181 7.1402488 -48.592209 142.78868
134131000 -0.23692106 -121.99644 -73.727364 -71.332954 -71.799866 -44.279621 -48.336224 138.34692
135930000 -0.23952162 -123.63535 -81.207886 -109.28369 -75.774445 -122.78159 -48.924637 137.00203
137729000 -0.24243742 -125.26339 -81.76445 -65.895103 -71.721947 -46.169315 -48.802917 140.81244
139528000 -0.24513605 -126.89854 -75.552963 -56.414719 -77.857224 53.035034 -49.882458 135.43385
141327000 -0.24867205 -128.52573 -77.50383 -80.542984 -76.365738 -166.22353 -48.413002 140.34734
143126000 -0.25186226 -130.15541 -75.200768 -94.349792 -69.005142 -130.74736 -48.808868 135.82092
144925000 -0.25675142 -131.78548 -80.355232 -67.923904 -69.000298 -114.58243 -48.882069 137.13184
146724000 -0.25981784 -133.41306 -73.201561 -154.74908 -66.256523 -7.8576212 -48.91098 138.65848
148523000 -0.26554665 -135.03215 -70.084709 -129.12556 -76.358688 -56.080093 -49.155415 137.16037
150322000 -0.26965898 -136.651 -72.341545 -125.37988 -73.268066 122.40143 -49.036568 131.8679
152121000 -0.27245092 -138.27768 -74.418457 -135.38736 -76.702606 122.66405 -49.009506 145.07248
153920000 -0.27753964 -139.89053 -78.64328 -105.18378 -70.369606 140.17247 -49.370499 132.27431
155719000 -0.28149375 -141.51326 -71.53228 -140.93634 -74.296394 -19.328648 -50.20652 129.0498
157518000 -0.28433976 -143.1273 -76.079063 -166.94501 -66.883186 127.23468 -49.32505 132.03015
159317000 -0.28738952 -144.73933 -73.187561 -150.65768 -66.979492 131.13707 -48.665855 132.22572
161116000 -0.2924296 -146.3568 -76.731659 164.84361 -76.889587 68.268517 -49.668819 132.56633
162915000 -0.29466358 -147.97549 -73.870285 161.22832 -72.592613 -178.59489 -49.378735 137.08153
164714000 -0.29893863 -149.5818 -71.781776 174.68137 -84.81868 -92.703468 -49.595089 130.41061
166513000 -0.30199006 -151.19798 -69.061729 -171.58382 -68.399658 -26.954988 -49.337128 132.08446
168312000 -0.30325618 -152.80885 -73.89463 161.82158 -78.473717 -132.78621 -49.161716 134.65131
170111000 -0.30727214 -154.42052 -74.201439 160.41023 -75.107353 -89.24379 -50.078239 133.33716
171910000 -0.31098926 -156.02817 -68.44088 151.39577 -78.365791 -166.03973 -49.843456 128.64711
173709000 -0.31256512 -157.63321 -72.292961 172.87988 -69.235931 -66.322472 -49.621319 131.30106
175508000 -0.3163099 -159.25415 -70.065643 161.76456 -64.362381 -47.897568 -49.58569 133.63542
177307000 -0.31833363 -160.85841 -68.31115 173.28883 -80.997116 123.85365 -49.585056 131.13358
179106000 -0.32086745 -162.46945 -67.522499 157.68413 -68.743706 136.9304 -50.136288 127.91209
180905000 -0.32324326 -164.08272 -71.007774 165.60329 -78.325485 -173.16457 -49.977959 132.99251
182704000 -0.32529283 -165.69261 -67.150528 149.49538 -80.835648 171.91783 -49.916977 121.08207
184503000 -0.32699725 -167.30112 -68.21183 154.04797 -71.275955 132.44203 -49.257065 127.93639
186302000 -0.3310425 -168.9183 -68.782196 141.82962 -74.50116 167.02832 -50.40749 123.87144
188101000 -0.33415067 -170.52489 -65.355888 146.8096 -68.949547 -163.2316 -49.351425 128.00519
189900000 -0.33463743 -172.14154 -67.079262 144.01222 -79.532234 -172.51633 -49.599678 126.10616
191699000 -0.33916557 -173.75067 -66.701973 134.47496 -73.312744 -33.023415 -49.653595 127.57746
193498000 -0.3402164 -175.36105 -64.401993 132.25011 -73.785065 67.48558 -49.528046 124.82285
195297000 -0.34248769 -176.97746 -66.113197 137.21518 -68.196838 -61.518021 -50.583054 122.49872
197096000 -0.34554157 -178.59125 -64.782478 126.61259 -83.869301 -161.93542 -50.188381 127.83431
198895000 -0.34829974 179.79291 -66.048203 130.56602 -71.188683 -10.145014 -49.313839 131.50444
200694000 -0.35106918 178.18036 -64.776207 127.01189 -79.724785 171.08759 -50.008869 127.36948
202493000 -0.35352391 176.57257 -63.346291 131.17946 -73.337723 -38.558064 -51.211662 124.31087
204292000 -0.357151 174.95352 -64.881844 122.94029 -74.456856 137.91986 -50.534172 126.64995
206091000 -0.35873303 173.34557 -62.209568 127.15665 -79.094536 124.04105 -50.242523 120.54858
207890000 -0.36112571 171.72704 -62.921249 132.07253 -87.950203 154.75916 -50.677891 114.60027
209689000 -0.36419132 170.12868 -62.968376 116.42822 -70.611336 78.30928 -50.80479 114.50172
211488000 -0.36612034 168.52173 -61.80909 112.04005 -66.108635 14.54512 -51.029034 123.17916
213287000 -0.36968046 166.90915 -62.729481 113.50711 -72.428772 172.6082 -50.180748 121.39143
215086000 -0.37211782 165.29424 -62.378304 118.87228 -75.8974 50.11842 -50.154572 111.33729
216885000 -0.37549573 163.69385 -61.687622 107.56921 -71.470634 -51.194565 -50.714333 116.43257
218684000 -0.37727305 162.09 -60.795185 106.08493 -70.959908 -81.031029 -51.087112 114.6282
220483000 -0.37975875 160.47595 -59.840923 102.11349 -69.381462 -0.98031741 -50.671291 120.41029
222282000 -0.38402286 158.86137 -58.660606 106.82436 -70.869911 30.614359 -50.367821 117.95512
224081000 -0.38582122 157.26703 -59.375629 109.10526 -72.838699 157.85391 -49.351284 116.10201
225880000 -0.38786909 155.66241 -58.212761 96.5783 -76.087631 -11.800052 -50.605637 117.14929
227679000 -0.38977551 154.04404 -58.331989 98.211662 -73.657761 19.138288 -50.053066 114.54562
229478000 -0.39125165 152.4462 -58.364311 101.7429 -75.258934 48.476727 -50.464592 111.65546
231277000 -0.3940886 150.83304 -58.049496 92.742104 -73.057755 -78.251198 -50.638851 108.33773
233076000 -0.396633 149.22934 -57.328182 92.970467 -73.692177 -104.86648 -50.983715 109.53725
234875000 -0.39756051 147.62425 -56.527706 89.848221 -75.995911 -140.94942 -49.928001 118.4854
236674000 -0.39984584 146.01064 -57.234921 91.782631 -76.217545 89.080872 -49.812534 110.79501
238473000 -0.40112066 144.40222 -55.711781 90.124771 -77.699043 117.47308 -51.004066 111.84089
240272000 -0.40232971 142.80461 -54.972 87.600273 -83.528297 -88.640533 -50.91748 111.97971
242071000 -0.40487072 141.1801 -56.24313 89.209702 -80.580429 -79.032982 -50.552357 112.44206
243870000 -0.40600008 139.58624 -54.733189 86.652641 -69.009499 -38.729378 -50.230583 107.02501
245669000 -0.40618429 137.96388 -54.130726 81.216904 -75.003189 -85.603203 -50.672985 114.89452
247468000 -0.40812322 136.35156 -53.732182 77.682381 -91.473625 -73.67337 -49.898254 109.50321
249267000 -0.40872669 134.74596 -53.44376 78.397133 -77.067085 -178.39371 -50.82412 100.4192
251066000 -0.40794861 133.14024 -53.355587 72.937561 -64.832474 48.945236 -50.193939 112.83589
252865000 -0.410339 131.53354 -52.549526 71.229942 -68.948608 147.86154 -50.469101 107.20885
254664000 -0.41092169 129.90733 -52.004192 71.639389 -63.125385 -20.325014 -50.711277 99.098572
256463000 -0.41319641 128.28604 -51.112991 67.385849 -65.076942 -145.28773 -50.648033 108.86016
258262000 -0.41495562 126.6744 -52.03569 66.284424 -70.469551 79.758659 -51.521618 101.79455
260061000 -0.41573837 125.05877 -50.69173 65.272797 -75.578232 -152.68492 -50.558384 89.439453
261860000 -0.41714099 123.45386 -50.567993 61.269661 -66.576744 -42.58289 -50.108051 113.45518
263659000 -0.41660273 121.81949 -49.687462 61.172424 -64.28727 39.73011 -48.884064 109.68563
265458000 -0.4167147 120.19691 -49.1796 59.025162 -73.230865 25.507338 -50.444008 100.90016
267257000 -0.41973114 118.58118 -48.849182 56.308903 -74.238647 74.324165 -50.369347 102.50702
269056000 -0.42170095 116.96456 -48.790874 53.826523 -63.960682 -11.980546 -50.992653 102.52423
270855000 -0.42104691 115.34541 -48.037148 54.755779 -65.890358 -72.463196 -51.955017 101.75507
272654000 -0.42498866 113.73451 -47.573231 50.482052 -62.682491 140.30847 -50.701893 107.41503
274453000 -0.42540661 112.09336 -47.060585 47.542477 -76.972527 -25.24147 -52.003349 94.136002
276252000 -0.4282251 110.49873 -46.742794 46.924385 -68.074608 57.441387 -51.905602 89.179787
278051000 -0.43014705 108.85648 -46.120003 46.244148 -75.742844 -50.240974 -50.458786 99.715622
279850000 -0.43072012 107.25172 -46.018169 42.808521 -71.583954 -45.843761 -50.230598 90.828232
281649000 -0.43336847 105.61929 -45.446636 39.380775 -68.711159 -174.08679 -50.884132 93.515533
283448000 -0.43372858 103.97988 -44.929394 36.424557 -72.586159 80.663399 -51.078926 104.14357
285247000 -0.43697387 102.36804 -44.25 34.636559 -74.726234 133.95071 -51.013741 92.92289
287046000 -0.44024277 100.7148 -43.906704 32.14859 -69.078026 -1.2822382 -51.106762 102.00934
288845000 -0.44373229 99.11364 -43.515625 30.392538 -71.889496 139.33629 -51.473694 96.017326
290644000 -0.44736266 97.467918 -42.877552 27.477844 -77.169075 62.104481 -50.416672 98.571877
292443000 -0.44956666 95.826942 -42.667381 24.698702 -76.736626 28.615808 -50.590668 91.324753
294242000 -0.45339414 94.204422 -42.096886 22.948671 -78.150688 -77.782661 -50.983555 92.509315
296041000 -0.45478597 92.557793 -41.676411 19.941671 -67.277237 -58.718811 -50.814514 97.942062
297840000 -0.45944411 90.943802 -41.152981 17.32618 -80.108147 22.844698 -52.322609 98.154121
299639000 -0.46422043 89.287773 -40.673035 13.541784 -66.228424 63.311504 -51.124264 102.40247
301438000 -0.46601284 87.645668 -40.376263 12.580361 -79.09214 -20.727121 -51.280552 97.557701
303237000 -0.46942249 86.017754 -39.848644 9.3816471 -68.519806 -169.41034 -51.479889 86.206711
305036000 -0.47522134 84.391327 -39.423878 6.5149198 -71.376259 88.450333 -50.973969 95.339706
306835000 -0.48102823 82.73703 -39.02816 3.2878039 -61.281052 -155.61203 -50.319458 96.309311
308634000 -0.48349592 81.10836 -38.566204 0.59042686 -65.069778 -35.403305 -50.290035 88.973648
310433000 -0.48827994 79.452164 -38.199993 -2.1309633 -68.897339 -9.3683119 -50.944103 90.705917
312232000 -0.49462268 77.827858 -37.801094 -4.5588603 -67.587639 62.261108 -50.58886 96.02298
314031000 -0.49989879 76.170425 -37.499439 -8.052002 -68.856888 -19.067377 -51.215939 101.78429
315830000 -0.50716466 74.548332 -37.037636 -10.420916 -69.025307 -51.047852 -51.2798 84.709991
317629000 -0.51254165 72.896172 -36.601578 -12.992049 -82.881264 129.67601 -52.231972 89.718445
319428000 -0.51733041 71.25695 -36.341297 -16.179731 -80.450745 -76.806328 -51.03447 82.723793
321227000 -0.52377504 69.605461 -35.86882 -18.97834 -74.423241 118.75358 -51.706226 98.832619
323026000 -0.52817714 67.962646 -35.375828 -21.286652 -64.30986 137.09706 -50.858543 89.631279
324825000 -0.53648597 66.308899 -35.035835 -24.46792 -71.066765 -117.85564 -50.980087 103.25045
326624000 -0.54130942 64.665558 -34.703892 -26.753704 -80.581703 89.561623 -51.876682 92.880928
328423000 -0.54911906 63.001312 -34.354218 -29.907906 -66.301636 57.322159 -51.54784 89.027802
330222000 -0.55510181 61.360947 -33.964828 -32.253208 -68.333344 -146.90724 -51.277523 97.834671
332021000 -0.56308514 59.681252 -33.58728 -34.814518 -79.144867 -70.799202 -51.41003 84.406036
333820000 -0.56790167 58.02161 -33.202869 -37.437191 -68.808853 -171.26738 -53.178852 100.68917
335619000 -0.57683498 56.341068 -32.780293 -40.341942 -73.31015 101.61082 -51.094444 96.893127
337418000 -0.58439249 54.675007 -32.377171 -42.666897 -81.025208 140.3913 -53.535843 102.59717
339217000 -0.59138775 53.002644 -31.952442 -45.175465 -74.617538 46.382664 -52.384701 91.016281
341016000 -0.59959263 51.296822 -31.527348 -47.758575 -75.575684 22.917168 -55.25589 92.057571
342815000 -0.6107772 49.627312 -31.105745 -50.141422 -66.406685 -168.22264 -52.175465 97.276665
344614000 -0.62097007 47.926029 -30.68688 -53.091629 -67.626427 -106.19868 -51.21048 93.780869
346413000 -0.63356388 46.230862 -30.220726 -55.602711 -76.615517 -142.94366 -52.410393 97.906479
348212000 -0.64624834 44.52034 -29.761293 -58.363846 -71.652534 159.17598 -53.245716 88.890251
350011000 -0.66019511 42.798374 -29.310057 -61.208843 -72.526604 -126.14634 -53.301422 90.432541
351810000 -0.67332703 41.091743 -28.769161 -64.182671 -66.260216 145.39413 -54.208488 96.99659
353609000 -0.6910454 39.364655 -28.320227 -67.025215 -69.415627 -122.7933 -53.798454 92.129257
355408000 -0.70938712 37.633499 -27.830124 -69.861084 -83.884621 25.50774 -53.619022 89.676414
357207000 -0.72843993 35.907219 -27.337191 -73.149712 -67.74939 94.782837 -52.92548 92.264442
359006000 -0.75305367 34.182362 -26.849199 -76.368118 -63.905201 -161.42912 -54.44421 102.39643
360805000 -0.77716309 32.448975 -26.331558 -79.685135 -82.819626 -11.244181 -53.907478 91.142227
362604000 -0.80159044 30.715878 -25.82222 -83.148842 -69.1483 7.5094113 -53.62812 91.222664
364403000 -0.83051497 28.974239 -25.32637 -86.768585 -72.65461 154.3201 -53.21957 97.854263
366202000 -0.86125511 27.236769 -24.805122 -90.519012 -66.935799 101.48627 -54.652214 91.879501
368001000 -0.89629561 25.514807 -24.329453 -94.373985 -69.790375 117.55968 -53.933472 100.9104
369800000 -0.93142802 23.781456 -23.844852 -98.386681 -79.81395 -83.338402 -54.77338 88.645622
371599000 -0.96975279 22.060598 -23.336742 -102.6007 -76.280548 -47.076607 -54.260551 91.659569
373398000 -1.0142235 20.368887 -22.849007 -106.84719 -78.913063 106.51167 -55.017784 96.960144
375197000 -1.0590358 18.671223 -22.383909 -111.13386 -74.062515 -172.39725 -54.771622 88.811951
376996000 -1.1052914 16.990076 -21.921762 -115.70467 -66.469879 161.14729 -55.766277 99.692604
378795000 -1.1545126 15.330039 -21.481182 -120.3402 -63.862473 71.543907 -53.659306 92.797249
380594000 -1.2073621 13.686562 -21.063845 -125.21056 -71.822357 86.413963 -55.453403 89.962418
